date Thu Dec 3 08:44:32.519 pm 2020
base hex  timestamps absolute
internal events logged
// version 11.0.0
//   7.110000 previous log file: Logging_T177.asc
Begin TriggerBlock Thu Dec 3 08:44:40.429 pm 2020
   7.910000 TriggerEvent: TriggerBlock[Logging] Start DirectLogging
   8.003051 1  Statistic: D 0 R 0 XD 0 XR 0 E 0 O 0 B 0.00%
   8.003051 CAN 1 Status:chip status error active
   9.003051 1  Statistic: D 0 R 0 XD 0 XR 0 E 0 O 0 B 0.00%
   9.003051 CAN 1 Status:chip status error active
  10.003051 1  Statistic: D 0 R 0 XD 0 XR 0 E 0 O 0 B 0.00%
  10.003051 CAN 1 Status:chip status error active
  11.003051 1  Statistic: D 0 R 0 XD 0 XR 0 E 0 O 0 B 0.00%
  11.003051 CAN 1 Status:chip status error active
  12.003052 1  Statistic: D 0 R 0 XD 0 XR 0 E 0 O 0 B 0.00%
  12.003052 CAN 1 Status:chip status error active
  13.003052 1  Statistic: D 0 R 0 XD 0 XR 0 E 0 O 0 B 0.00%
  13.003052 CAN 1 Status:chip status error active
  14.003052 1  Statistic: D 0 R 0 XD 0 XR 0 E 0 O 0 B 0.00%
  14.003052 CAN 1 Status:chip status error active
  15.003053 1  Statistic: D 0 R 0 XD 0 XR 0 E 0 O 0 B 0.00%
  15.003053 CAN 1 Status:chip status error active
  16.003053 1  Statistic: D 0 R 0 XD 0 XR 0 E 0 O 0 B 0.00%
  16.003053 CAN 1 Status:chip status error active
  17.003053 1  Statistic: D 0 R 0 XD 0 XR 0 E 0 O 0 B 0.00%
  17.003053 CAN 1 Status:chip status error active
  18.003054 1  Statistic: D 0 R 0 XD 0 XR 0 E 0 O 0 B 0.00%
  18.003054 CAN 1 Status:chip status error active
  19.003054 1  Statistic: D 0 R 0 XD 0 XR 0 E 0 O 0 B 0.00%
  19.003054 CAN 1 Status:chip status error active
  20.003054 1  Statistic: D 0 R 0 XD 0 XR 0 E 0 O 0 B 0.00%
  20.003054 CAN 1 Status:chip status error active
  21.003055 1  Statistic: D 0 R 0 XD 0 XR 0 E 0 O 0 B 0.00%
  21.003055 CAN 1 Status:chip status error active
  22.003055 1  Statistic: D 0 R 0 XD 0 XR 0 E 0 O 0 B 0.00%
  22.003055 CAN 1 Status:chip status error active
  23.003055 1  Statistic: D 0 R 0 XD 0 XR 0 E 0 O 0 B 0.00%
  23.003055 CAN 1 Status:chip status error active
  24.003056 1  Statistic: D 0 R 0 XD 0 XR 0 E 0 O 0 B 0.00%
  24.003056 CAN 1 Status:chip status error active
  25.003056 1  Statistic: D 0 R 0 XD 0 XR 0 E 0 O 0 B 0.00%
  25.003056 CAN 1 Status:chip status error active
  26.003056 1  Statistic: D 0 R 0 XD 0 XR 0 E 0 O 0 B 0.00%
  26.003056 CAN 1 Status:chip status error active
  27.003056 1  Statistic: D 0 R 0 XD 0 XR 0 E 0 O 0 B 0.00%
  27.003056 CAN 1 Status:chip status error active
  28.003057 1  Statistic: D 0 R 0 XD 0 XR 0 E 0 O 0 B 0.00%
  28.003057 CAN 1 Status:chip status error active
  29.003057 1  Statistic: D 0 R 0 XD 0 XR 0 E 0 O 0 B 0.00%
  29.003057 CAN 1 Status:chip status error active
  30.003057 1  Statistic: D 0 R 0 XD 0 XR 0 E 0 O 0 B 0.00%
  30.003057 CAN 1 Status:chip status error active
  31.003058 1  Statistic: D 0 R 0 XD 0 XR 0 E 0 O 0 B 0.00%
  31.003058 CAN 1 Status:chip status error active
  32.003058 1  Statistic: D 0 R 0 XD 0 XR 0 E 0 O 0 B 0.00%
  32.003058 CAN 1 Status:chip status error active
  33.003058 1  Statistic: D 0 R 0 XD 0 XR 0 E 0 O 0 B 0.00%
  33.003058 CAN 1 Status:chip status error active
  34.003059 1  Statistic: D 0 R 0 XD 0 XR 0 E 0 O 0 B 0.00%
  34.003059 CAN 1 Status:chip status error active
  35.003059 1  Statistic: D 0 R 0 XD 0 XR 0 E 0 O 0 B 0.00%
  35.003059 CAN 1 Status:chip status error active
  35.648930 1  551             Rx   d 8 51 01 00 00 00 00 FF FF  Length = 233910 BitCount = 121 ID = 1361
  35.748763 1  551             Rx   d 8 51 02 00 00 00 00 FF FF  Length = 233910 BitCount = 121 ID = 1361
  35.768741 1  3AA             Rx   d 8 17 00 00 00 52 00 00 00  Length = 235925 BitCount = 122 ID = 938
  35.968388 1  3AA             Rx   d 8 AE 10 00 00 52 00 00 00  Length = 235910 BitCount = 122 ID = 938
  36.003059 1  Statistic: D 4 R 0 XD 0 XR 0 E 0 O 0 B 0.09%
  36.003059 CAN 1 Status:chip status error active
  36.008323 1  551             Rx   d 8 51 01 00 00 00 00 FF FF  Length = 233910 BitCount = 121 ID = 1361
  36.108146 1  551             Rx   d 8 51 02 00 00 00 00 FF FF  Length = 233910 BitCount = 121 ID = 1361
  36.168049 1  3AA             Rx   d 8 78 20 00 00 52 00 00 00  Length = 237910 BitCount = 123 ID = 938
  36.367690 1  3AA             Rx   d 8 C1 30 00 00 52 00 00 00  Length = 235925 BitCount = 122 ID = 938
  36.367932 1  551             Rx   d 8 51 01 00 00 00 00 FF FF  Length = 233910 BitCount = 121 ID = 1361
  36.467508 1  551             Rx   d 8 51 02 00 00 00 00 FF FF  Length = 233910 BitCount = 121 ID = 1361
  36.567315 1  3AA             Rx   d 8 C9 40 00 00 52 00 00 00  Length = 235910 BitCount = 122 ID = 938
  36.727032 1  551             Rx   d 8 51 01 00 00 00 00 FF FF  Length = 233910 BitCount = 121 ID = 1361
  36.766954 1  3AA             Rx   d 8 70 50 00 00 52 00 00 00  Length = 233910 BitCount = 121 ID = 938
  36.826847 1  551             Rx   d 8 51 02 00 00 00 00 FF FF  Length = 233925 BitCount = 121 ID = 1361
  36.966579 1  3AA             Rx   d 8 A6 60 00 00 52 00 00 00  Length = 233910 BitCount = 121 ID = 938
  37.003060 1  Statistic: D 11 R 0 XD 0 XR 0 E 0 O 0 B 0.26%
  37.003060 CAN 1 Status:chip status error active
  37.086359 1  551             Rx   d 8 51 01 00 00 00 00 FF FF  Length = 233910 BitCount = 121 ID = 1361
  37.166196 1  3AA             Rx   d 8 1F 70 00 00 52 00 00 00  Length = 237925 BitCount = 123 ID = 938
  37.365809 1  3AA             Rx   d 8 B6 80 00 00 52 00 00 00  Length = 233910 BitCount = 121 ID = 938
  37.565431 1  3AA             Rx   d 8 0F 90 00 00 52 00 00 00  Length = 239910 BitCount = 124 ID = 938
  37.765030 1  3AA             Rx   d 8 D9 A0 00 00 52 00 00 00  Length = 231910 BitCount = 120 ID = 938
  37.964651 1  3AA             Rx   d 8 60 B0 00 00 52 00 00 00  Length = 235910 BitCount = 122 ID = 938
  38.003060 1  Statistic: D 6 R 0 XD 0 XR 0 E 0 O 0 B 0.14%
  38.003060 CAN 1 Status:chip status error active
  38.084417 1  551             Rx   d 8 51 04 00 00 00 00 FF FF  Length = 233910 BitCount = 121 ID = 1361
  38.164252 1  3AA             Rx   d 8 68 C0 00 00 52 00 00 00  Length = 235910 BitCount = 122 ID = 938
  38.363863 1  3AA             Rx   d 8 D1 D0 00 00 52 00 00 00  Length = 233910 BitCount = 121 ID = 938
  38.563484 1  3AA             Rx   d 8 07 E0 00 00 52 00 00 00  Length = 237925 BitCount = 123 ID = 938
  38.763097 1  3AA             Rx   d 8 17 00 00 00 52 00 00 00  Length = 235925 BitCount = 122 ID = 938
  38.962714 1  3AA             Rx   d 8 AE 10 00 00 52 00 00 00  Length = 235925 BitCount = 122 ID = 938
  39.003060 1  Statistic: D 6 R 0 XD 0 XR 0 E 0 O 0 B 0.14%
  39.003060 CAN 1 Status:chip status error active
  39.082486 1  551             Rx   d 8 51 04 00 00 00 00 FF FF  Length = 233910 BitCount = 121 ID = 1361
  39.162323 1  3AA             Rx   d 8 78 20 00 00 52 00 00 00  Length = 237910 BitCount = 123 ID = 938
  39.361914 1  3AA             Rx   d 8 C1 30 00 00 52 00 00 00  Length = 235910 BitCount = 122 ID = 938
  39.561518 1  3AA             Rx   d 8 C9 40 00 00 52 00 00 00  Length = 235910 BitCount = 122 ID = 938
  39.761135 1  3AA             Rx   d 8 70 50 00 00 52 00 00 00  Length = 233910 BitCount = 121 ID = 938
  39.960748 1  3AA             Rx   d 8 A6 60 00 00 52 00 00 00  Length = 233910 BitCount = 121 ID = 938
  40.003061 1  Statistic: D 6 R 0 XD 0 XR 0 E 0 O 0 B 0.14%
  40.003061 CAN 1 Status:chip status error active
  40.080520 1  551             Rx   d 8 51 04 00 00 00 00 FF FF  Length = 233910 BitCount = 121 ID = 1361
  40.160357 1  3AA             Rx   d 8 1F 70 00 00 52 00 00 00  Length = 237910 BitCount = 123 ID = 938
  40.359946 1  3AA             Rx   d 8 B6 80 00 00 52 00 00 00  Length = 233910 BitCount = 121 ID = 938
  40.559551 1  3AA             Rx   d 8 0F 90 00 00 52 00 00 00  Length = 239910 BitCount = 124 ID = 938
  40.759136 1  3AA             Rx   d 8 D9 A0 00 00 52 00 00 00  Length = 231910 BitCount = 120 ID = 938
  40.958723 1  3AA             Rx   d 8 60 B0 00 00 52 00 00 00  Length = 235910 BitCount = 122 ID = 938
  41.003061 1  Statistic: D 6 R 0 XD 0 XR 0 E 0 O 0 B 0.14%
  41.003061 CAN 1 Status:chip status error active
  41.078481 1  551             Rx   d 8 51 04 00 00 00 00 FF FF  Length = 233925 BitCount = 121 ID = 1361
  41.158298 1  3AA             Rx   d 8 68 C0 00 00 52 00 00 00  Length = 235910 BitCount = 122 ID = 938
  41.357877 1  3AA             Rx   d 8 D1 D0 00 00 52 00 00 00  Length = 233925 BitCount = 121 ID = 938
  41.557465 1  3AA             Rx   d 8 07 E0 00 00 52 00 00 00  Length = 237910 BitCount = 123 ID = 938
  41.757054 1  3AA             Rx   d 8 17 00 00 00 52 00 00 00  Length = 235925 BitCount = 122 ID = 938
  41.956653 1  3AA             Rx   d 8 AE 10 00 00 52 00 00 00  Length = 235910 BitCount = 122 ID = 938
  42.003061 1  Statistic: D 6 R 0 XD 0 XR 0 E 0 O 0 B 0.14%
  42.003061 CAN 1 Status:chip status error active
  42.076415 1  551             Rx   d 8 51 04 00 00 00 00 FF FF  Length = 233910 BitCount = 121 ID = 1361
  42.156248 1  3AA             Rx   d 8 78 20 00 00 52 00 00 00  Length = 237910 BitCount = 123 ID = 938
  42.355845 1  3AA             Rx   d 8 C1 30 00 00 52 00 00 00  Length = 235910 BitCount = 122 ID = 938
  42.555450 1  3AA             Rx   d 8 C9 40 00 00 52 00 00 00  Length = 235910 BitCount = 122 ID = 938
  42.755051 1  3AA             Rx   d 8 70 50 00 00 52 00 00 00  Length = 233910 BitCount = 121 ID = 938
  42.954646 1  3AA             Rx   d 8 A6 60 00 00 52 00 00 00  Length = 233925 BitCount = 121 ID = 938
  43.003061 1  Statistic: D 6 R 0 XD 0 XR 0 E 0 O 0 B 0.14%
  43.003061 CAN 1 Status:chip status error active
  43.074412 1  551             Rx   d 8 51 04 00 00 00 00 FF FF  Length = 233910 BitCount = 121 ID = 1361
  43.154243 1  3AA             Rx   d 8 1F 70 00 00 52 00 00 00  Length = 237925 BitCount = 123 ID = 938
  43.353828 1  3AA             Rx   d 8 B6 80 00 00 52 00 00 00  Length = 233910 BitCount = 121 ID = 938
  43.553427 1  3AA             Rx   d 8 0F 90 00 00 52 00 00 00  Length = 239910 BitCount = 124 ID = 938
  43.753016 1  3AA             Rx   d 8 D9 A0 00 00 52 00 00 00  Length = 231910 BitCount = 120 ID = 938
  43.952615 1  3AA             Rx   d 8 60 B0 00 00 52 00 00 00  Length = 235910 BitCount = 122 ID = 938
  44.003062 1  Statistic: D 6 R 0 XD 0 XR 0 E 0 O 0 B 0.14%
  44.003062 CAN 1 Status:chip status error active
  44.072385 1  551             Rx   d 8 51 04 00 00 00 00 FF FF  Length = 233925 BitCount = 121 ID = 1361
  44.152220 1  3AA             Rx   d 8 68 C0 00 00 52 00 00 00  Length = 235910 BitCount = 122 ID = 938
  44.351828 1  3AA             Rx   d 8 D1 D0 00 00 52 00 00 00  Length = 233910 BitCount = 121 ID = 938
  44.551435 1  3AA             Rx   d 8 07 E0 00 00 52 00 00 00  Length = 237925 BitCount = 123 ID = 938
  44.751042 1  3AA             Rx   d 8 17 00 00 00 52 00 00 00  Length = 235910 BitCount = 122 ID = 938
  44.950637 1  3AA             Rx   d 8 AE 10 00 00 52 00 00 00  Length = 235910 BitCount = 122 ID = 938
  45.003062 1  Statistic: D 6 R 0 XD 0 XR 0 E 0 O 0 B 0.14%
  45.003062 CAN 1 Status:chip status error active
  45.070397 1  551             Rx   d 8 51 04 00 00 00 00 FF FF  Length = 233910 BitCount = 121 ID = 1361
  45.150236 1  3AA             Rx   d 8 78 20 00 00 52 00 00 00  Length = 237910 BitCount = 123 ID = 938
  45.349837 1  3AA             Rx   d 8 C1 30 00 00 52 00 00 00  Length = 235910 BitCount = 122 ID = 938
  45.549444 1  3AA             Rx   d 8 C9 40 00 00 52 00 00 00  Length = 235910 BitCount = 122 ID = 938
  45.749037 1  3AA             Rx   d 8 70 50 00 00 52 00 00 00  Length = 233925 BitCount = 121 ID = 938
  45.948622 1  3AA             Rx   d 8 A6 60 00 00 52 00 00 00  Length = 233910 BitCount = 121 ID = 938
  46.003062 1  Statistic: D 6 R 0 XD 0 XR 0 E 0 O 0 B 0.14%
  46.003062 CAN 1 Status:chip status error active
  46.068376 1  551             Rx   d 8 51 04 00 00 00 00 FF FF  Length = 233925 BitCount = 121 ID = 1361
  46.148211 1  3AA             Rx   d 8 1F 70 00 00 52 00 00 00  Length = 237925 BitCount = 123 ID = 938
  46.347792 1  3AA             Rx   d 8 B6 80 00 00 52 00 00 00  Length = 233910 BitCount = 121 ID = 938
  46.547385 1  3AA             Rx   d 8 0F 90 00 00 52 00 00 00  Length = 239910 BitCount = 124 ID = 938
  46.746960 1  3AA             Rx   d 8 D9 A0 00 00 52 00 00 00  Length = 231925 BitCount = 120 ID = 938
  46.946543 1  3AA             Rx   d 8 60 B0 00 00 52 00 00 00  Length = 235910 BitCount = 122 ID = 938
  47.003063 1  Statistic: D 6 R 0 XD 0 XR 0 E 0 O 0 B 0.14%
  47.003063 CAN 1 Status:chip status error active
  47.066295 1  551             Rx   d 8 51 04 00 00 00 00 FF FF  Length = 233910 BitCount = 121 ID = 1361
  47.146122 1  3AA             Rx   d 8 68 C0 00 00 52 00 00 00  Length = 235910 BitCount = 122 ID = 938
  47.345701 1  3AA             Rx   d 8 D1 D0 00 00 52 00 00 00  Length = 233910 BitCount = 121 ID = 938
  47.545276 1  3AA             Rx   d 8 07 E0 00 00 52 00 00 00  Length = 237910 BitCount = 123 ID = 938
  47.744851 1  3AA             Rx   d 8 17 00 00 00 52 00 00 00  Length = 235925 BitCount = 122 ID = 938
  47.944423 1  3AA             Rx   d 8 AE 10 00 00 52 00 00 00  Length = 235925 BitCount = 122 ID = 938
  48.003063 1  Statistic: D 6 R 0 XD 0 XR 0 E 0 O 0 B 0.14%
  48.003063 CAN 1 Status:chip status error active
  48.064178 1  551             Rx   d 8 51 04 00 00 00 00 FF FF  Length = 233910 BitCount = 121 ID = 1361
  48.144001 1  3AA             Rx   d 8 78 20 00 00 52 00 00 00  Length = 237925 BitCount = 123 ID = 938
  48.272947 1  703             Rx   d 8 03 22 F1 89 55 55 55 55  Length = 220015 BitCount = 114 ID = 1795  // 1  OTP(01) Atom 703->70B : SF Length:   03         [ 22 F1 89 ]
  48.283694 1  70B             Rx   d 8 10 0F 62 F1 89 54 2E 32  Length = 219910 BitCount = 114 ID = 1803  // 1  OTP(02) Atom 70B->703 : FF Length: 000F         [ 62 F1 89 54 2E 32 ]
  48.294280 1  703             Rx   d 8 30 08 14 55 55 55 55 55  Length = 224015 BitCount = 116 ID = 1795  // 1  OTP(02) Atom 703->70B : FC.CTS:  BSmax: 0x08, STmin: 0x14 ms
  48.323616 1  70B             Rx   d 8 21 30 2E 30 30 00 00 00  Length = 229910 BitCount = 119 ID = 1803  // 1  OTP(02) Atom 70B->703 : CF Seq.Nr.:   1         [ 30 2E 30 30 00 00 00 ]
  48.343558 1  3AA             Rx   d 8 C1 30 00 00 52 00 00 00  Length = 235925 BitCount = 122 ID = 938
  48.353548 1  70B             Rx   d 8 22 00 00 AA AA AA AA AA  Length = 221925 BitCount = 115 ID = 1803  // 1  OTP(02) Atom 70B->703 : CF Seq.Nr.:   2         [ 00 00 ]
  48.354740 1  7DF             Rx   d 8 02 10 03 55 55 55 55 55  Length = 228015 BitCount = 118 ID = 2015  // 1  OTP(03) Atom 7DF->7DF : SF Length:   02         [ 10 03 ]
  48.373506 1  70B             Rx   d 8 06 50 03 00 32 01 F4 AA  Length = 227910 BitCount = 118 ID = 1803  // 1  OTP(04) Atom 70B->703 : SF Length:   06         [ 50 03 00 32 01 F4 ]
  48.375802 1  7DF             Rx   d 8 02 85 82 55 55 55 55 55  Length = 224000 BitCount = 116 ID = 2015  // 1  OTP(05) Atom 7DF->7DF : SF Length:   02         [ 85 82 ]
  48.543129 1  3AA             Rx   d 8 C9 40 00 00 52 00 00 00  Length = 235910 BitCount = 122 ID = 938
  48.742700 1  3AA             Rx   d 8 70 50 00 00 52 00 00 00  Length = 233910 BitCount = 121 ID = 938
  48.942291 1  3AA             Rx   d 8 A6 60 00 00 52 00 00 00  Length = 233910 BitCount = 121 ID = 938
  49.003063 1  Statistic: D 14 R 0 XD 0 XR 0 E 0 O 0 B 0.33%
  49.003063 CAN 1 Status:chip status error active
  49.062055 1  551             Rx   d 8 51 04 00 00 00 00 FF FF  Length = 233910 BitCount = 121 ID = 1361
  49.078879 1  7DF             Rx   d 8 03 28 83 03 55 55 55 55  Length = 226000 BitCount = 117 ID = 2015  // 1  OTP(06) Atom 7DF->7DF : SF Length:   03         [ 28 83 03 ]
  49.780899 1  703             Rx   d 8 02 10 02 55 55 55 55 55  Length = 224000 BitCount = 116 ID = 1795  // 1  OTP(07) Atom 703->70B : SF Length:   02         [ 10 02 ]
  49.803086 1  ErrorFrame	Flags = 0xfffe	CodeExt = 0x20aa	Code = 0x82	ID = 0x70b	DLC = 8	Position = 51	Length = 111875	Data = 0x6  0x50  0x2  0xf  0x55  0x55  0x55  0x55
  49.803088 CAN 1 Status:chip status error active  - TxErr: 0 RxErr: 1
  49.803842 CAN 1 Status:chip status error active
  49.803856 1  70B             Rx   d 8 06 50 02 00 32 01 F4 AA  Length = 227910 BitCount = 118 ID = 1803  // 1  OTP(08) Atom 70B->703 : SF Length:   06         [ 50 02 00 32 01 F4 ]
  49.806877 1  703             Rx   d 8 02 27 01 55 55 55 55 55  Length = 222242 BitCount = 115 ID = 1795  // 1  OTP(09) Atom 703->70B : SF Length:   02         [ 27 01 ]
  49.807192 1  70B             Rx   d 8 04 67 01 AF 76 AA AA AA  Length = 217925 BitCount = 113 ID = 1803  // 1  OTP(0A) Atom 70B->703 : SF Length:   04         [ 67 01 AF 76 ]
  49.813925 1  703             Rx   d 8 04 27 02 50 89 55 55 55  Length = 222257 BitCount = 115 ID = 1795  // 1  OTP(0B) Atom 703->70B : SF Length:   04         [ 27 02 50 89 ]
  49.814237 1  70B             Rx   d 8 02 67 02 AA AA AA AA AA  Length = 217910 BitCount = 113 ID = 1803  // 1  OTP(0C) Atom 70B->703 : SF Length:   02         [ 67 02 ]
  49.815863 1  703             Rx   d 8 05 31 01 FF 00 00 55 55  Length = 232242 BitCount = 120 ID = 1795  // 1  OTP(0D) Atom 703->70B : SF Length:   05         [ 31 01 FF 00 00 ]
  49.816169 1  70B             Rx   d 8 03 7F 31 78 AA AA AA AA  Length = 219910 BitCount = 114 ID = 1803  // 1  OTP(0E) Atom 70B->703 : SF Length:   03         [ 7F 31 78 ]
  50.003064 1  Statistic: D 10 R 0 XD 0 XR 0 E 1 O 0 B 0.24%
  50.003064 CAN 1 Status:chip status error active
  50.728738 1  70B             Rx   d 8 04 71 01 FF 00 AA AA AA  Length = 221910 BitCount = 115 ID = 1803  // 1  OTP(0F) Atom 70B->703 : SF Length:   04         [ 71 01 FF 00 ]
  50.730833 1  703             Rx   d 8 10 0B 34 00 44 00 00 C0  Length = 236257 BitCount = 122 ID = 1795  // 1  OTP(10) Atom 703->70B : FF Length: 000B         [ 34 00 44 00 00 C0 ]
  50.731097 1  70B             Rx   d 8 30 00 00 AA AA AA AA AA  Length = 223910 BitCount = 116 ID = 1803  // 1  OTP(10) Atom 70B->703 : FC.CTS:  BSmax: 0x00, STmin: 0x00 ms
  50.731597 1  703             Rx   d 8 21 00 00 02 0F 1C 55 55  Length = 232000 BitCount = 120 ID = 1795  // 1  OTP(10) Atom 703->70B : CF Seq.Nr.:   1         [ 00 00 02 0F 1C ]
  50.731967 1  70B             Rx   d 8 04 74 20 0F FF AA AA AA  Length = 223910 BitCount = 116 ID = 1803  // 1  OTP(11) Atom 70B->703 : SF Length:   04         [ 74 20 0F FF ]
  50.734883 1  703             Rx   d 8 1F FF 36 01 00 70 00 20  Length = 234242 BitCount = 121 ID = 1795  // 1  OTP(12) Atom 703->70B : FF Length: 0FFF         [ 36 01 00 70 00 20 ]
  50.735145 1  70B             Rx   d 8 30 00 00 AA AA AA AA AA  Length = 223910 BitCount = 116 ID = 1803  // 1  OTP(12) Atom 70B->703 : FC.CTS:  BSmax: 0x00, STmin: 0x00 ms
  50.735641 1  703             Rx   d 8 21 11 C4 00 00 51 C4 00  Length = 232000 BitCount = 120 ID = 1795  // 1  OTP(12) Atom 703->70B : CF Seq.Nr.:   1         [ 11 C4 00 00 51 C4 00 ]
  50.735877 1  703             Rx   d 8 22 00 51 C4 00 00 51 C4  Length = 230000 BitCount = 119 ID = 1795  // 1  OTP(12) Atom 703->70B : CF Seq.Nr.:   2         [ 00 51 C4 00 00 51 C4 ]
  50.736115 1  703             Rx   d 8 23 00 00 51 C4 00 00 51  Length = 232000 BitCount = 120 ID = 1795  // 1  OTP(12) Atom 703->70B : CF Seq.Nr.:   3         [ 00 00 51 C4 00 00 51 ]
  50.736363 1  703             Rx   d 8 24 C4 00 00 00 00 00 00  Length = 242000 BitCount = 125 ID = 1795  // 1  OTP(12) Atom 703->70B : CF Seq.Nr.:   4         [ C4 00 00 00 00 00 00 ]
  50.736611 1  703             Rx   d 8 25 00 00 00 00 00 00 00  Length = 242242 BitCount = 125 ID = 1795  // 1  OTP(12) Atom 703->70B : CF Seq.Nr.:   5         [ 00 00 00 00 00 00 00 ]
  50.736853 1  703             Rx   d 8 26 00 00 00 00 00 51 C4  Length = 236242 BitCount = 122 ID = 1795  // 1  OTP(12) Atom 703->70B : CF Seq.Nr.:   6         [ 00 00 00 00 00 51 C4 ]
  50.737096 1  703             Rx   d 8 27 00 00 51 C4 00 00 00  Length = 236242 BitCount = 122 ID = 1795  // 1  OTP(12) Atom 703->70B : CF Seq.Nr.:   7         [ 00 00 51 C4 00 00 00 ]
  50.737342 1  703             Rx   d 8 28 00 00 00 51 C4 00 00  Length = 240242 BitCount = 124 ID = 1795  // 1  OTP(12) Atom 703->70B : CF Seq.Nr.:   8         [ 00 00 00 51 C4 00 00 ]
  50.737578 1  703             Rx   d 8 29 69 D3 00 00 B9 3B 01  Length = 230242 BitCount = 119 ID = 1795  // 1  OTP(12) Atom 703->70B : CF Seq.Nr.:   9         [ 69 D3 00 00 B9 3B 01 ]
  50.737810 1  703             Rx   d 8 2A 00 C5 3B 01 00 D1 3B  Length = 226242 BitCount = 117 ID = 1795  // 1  OTP(12) Atom 703->70B : CF Seq.Nr.:   A         [ 00 C5 3B 01 00 D1 3B ]
  50.738047 1  703             Rx   d 8 2B 01 00 DD 3B 01 00 E9  Length = 230242 BitCount = 119 ID = 1795  // 1  OTP(12) Atom 703->70B : CF Seq.Nr.:   B         [ 01 00 DD 3B 01 00 E9 ]
  50.738283 1  703             Rx   d 8 2C 3B 01 00 F5 3B 01 00  Length = 230242 BitCount = 119 ID = 1795  // 1  OTP(12) Atom 703->70B : CF Seq.Nr.:   C         [ 3B 01 00 F5 3B 01 00 ]
  50.738521 1  703             Rx   d 8 2D 01 3C 01 00 0D 3C 01  Length = 232242 BitCount = 120 ID = 1795  // 1  OTP(12) Atom 703->70B : CF Seq.Nr.:   D         [ 01 3C 01 00 0D 3C 01 ]
  50.738757 1  703             Rx   d 8 2E 00 19 3C 01 00 25 3C  Length = 230242 BitCount = 119 ID = 1795  // 1  OTP(12) Atom 703->70B : CF Seq.Nr.:   E         [ 00 19 3C 01 00 25 3C ]
  50.738998 1  703             Rx   d 8 2F 01 00 31 3C 01 00 3D  Length = 234242 BitCount = 121 ID = 1795  // 1  OTP(12) Atom 703->70B : CF Seq.Nr.:   F         [ 01 00 31 3C 01 00 3D ]
  50.739234 1  703             Rx   d 8 20 3C 01 00 49 3C 01 00  Length = 230000 BitCount = 119 ID = 1795  // 1  OTP(12) Atom 703->70B : CF Seq.Nr.:   0         [ 3C 01 00 49 3C 01 00 ]
  50.739468 1  703             Rx   d 8 21 55 3C 01 00 61 3C 01  Length = 228000 BitCount = 118 ID = 1795  // 1  OTP(12) Atom 703->70B : CF Seq.Nr.:   1         [ 55 3C 01 00 61 3C 01 ]
  50.739702 1  703             Rx   d 8 22 00 6D 3C 01 00 79 3C  Length = 228000 BitCount = 118 ID = 1795  // 1  OTP(12) Atom 703->70B : CF Seq.Nr.:   2         [ 00 6D 3C 01 00 79 3C ]
  50.739940 1  703             Rx   d 8 23 01 00 51 C4 00 00 51  Length = 232000 BitCount = 120 ID = 1795  // 1  OTP(12) Atom 703->70B : CF Seq.Nr.:   3         [ 01 00 51 C4 00 00 51 ]
  50.740178 1  703             Rx   d 8 24 C4 00 00 51 C4 00 00  Length = 232000 BitCount = 120 ID = 1795  // 1  OTP(12) Atom 703->70B : CF Seq.Nr.:   4         [ C4 00 00 51 C4 00 00 ]
  50.740414 1  703             Rx   d 8 25 51 C4 00 00 51 C4 00  Length = 230000 BitCount = 119 ID = 1795  // 1  OTP(12) Atom 703->70B : CF Seq.Nr.:   5         [ 51 C4 00 00 51 C4 00 ]
  50.740650 1  703             Rx   d 8 26 00 51 C4 00 00 51 C4  Length = 230242 BitCount = 119 ID = 1795  // 1  OTP(12) Atom 703->70B : CF Seq.Nr.:   6         [ 00 51 C4 00 00 51 C4 ]
  50.740892 1  703             Rx   d 8 27 00 00 39 F4 00 00 45  Length = 236242 BitCount = 122 ID = 1795  // 1  OTP(12) Atom 703->70B : CF Seq.Nr.:   7         [ 00 00 39 F4 00 00 45 ]
  50.741130 1  703             Rx   d 8 28 F4 00 00 45 EC 00 00  Length = 232242 BitCount = 120 ID = 1795  // 1  OTP(12) Atom 703->70B : CF Seq.Nr.:   8         [ F4 00 00 45 EC 00 00 ]
  50.741367 1  703             Rx   d 8 29 51 EC 00 00 5D EC 00  Length = 230242 BitCount = 119 ID = 1795  // 1  OTP(12) Atom 703->70B : CF Seq.Nr.:   9         [ 51 EC 00 00 5D EC 00 ]
  50.741603 1  703             Rx   d 8 2A 00 51 C4 00 00 51 C4  Length = 230242 BitCount = 119 ID = 1795  // 1  OTP(12) Atom 703->70B : CF Seq.Nr.:   A         [ 00 51 C4 00 00 51 C4 ]
  50.741841 1  703             Rx   d 8 2B 00 00 51 C4 00 00 51  Length = 232242 BitCount = 120 ID = 1795  // 1  OTP(12) Atom 703->70B : CF Seq.Nr.:   B         [ 00 00 51 C4 00 00 51 ]
  50.742083 1  703             Rx   d 8 2C C4 00 00 51 C4 00 00  Length = 236242 BitCount = 122 ID = 1795  // 1  OTP(12) Atom 703->70B : CF Seq.Nr.:   C         [ C4 00 00 51 C4 00 00 ]
  50.742322 1  703             Rx   d 8 2D 51 C4 00 00 51 C4 00  Length = 232242 BitCount = 120 ID = 1795  // 1  OTP(12) Atom 703->70B : CF Seq.Nr.:   D         [ 51 C4 00 00 51 C4 00 ]
  50.742560 1  703             Rx   d 8 2E 00 51 C4 00 00 51 C4  Length = 232242 BitCount = 120 ID = 1795  // 1  OTP(12) Atom 703->70B : CF Seq.Nr.:   E         [ 00 51 C4 00 00 51 C4 ]
  50.742798 1  703             Rx   d 8 2F 00 00 51 C4 00 00 51  Length = 232242 BitCount = 120 ID = 1795  // 1  OTP(12) Atom 703->70B : CF Seq.Nr.:   F         [ 00 00 51 C4 00 00 51 ]
  50.743038 1  703             Rx   d 8 20 C4 00 00 51 C4 00 00  Length = 234000 BitCount = 121 ID = 1795  // 1  OTP(12) Atom 703->70B : CF Seq.Nr.:   0         [ C4 00 00 51 C4 00 00 ]
  50.743276 1  703             Rx   d 8 21 51 C4 00 00 51 C4 00  Length = 232000 BitCount = 120 ID = 1795  // 1  OTP(12) Atom 703->70B : CF Seq.Nr.:   1         [ 51 C4 00 00 51 C4 00 ]
  50.743512 1  703             Rx   d 8 22 00 51 C4 00 00 51 C4  Length = 230000 BitCount = 119 ID = 1795  // 1  OTP(12) Atom 703->70B : CF Seq.Nr.:   2         [ 00 51 C4 00 00 51 C4 ]
  50.743750 1  703             Rx   d 8 23 00 00 51 C4 00 00 51  Length = 232000 BitCount = 120 ID = 1795  // 1  OTP(12) Atom 703->70B : CF Seq.Nr.:   3         [ 00 00 51 C4 00 00 51 ]
  50.743988 1  703             Rx   d 8 24 C4 00 00 51 C4 00 00  Length = 232000 BitCount = 120 ID = 1795  // 1  OTP(12) Atom 703->70B : CF Seq.Nr.:   4         [ C4 00 00 51 C4 00 00 ]
  50.744224 1  703             Rx   d 8 25 51 C4 00 00 51 C4 00  Length = 230000 BitCount = 119 ID = 1795  // 1  OTP(12) Atom 703->70B : CF Seq.Nr.:   5         [ 51 C4 00 00 51 C4 00 ]
  50.744460 1  703             Rx   d 8 26 00 51 C4 00 00 51 C4  Length = 230242 BitCount = 119 ID = 1795  // 1  OTP(12) Atom 703->70B : CF Seq.Nr.:   6         [ 00 51 C4 00 00 51 C4 ]
  50.744699 1  703             Rx   d 8 27 00 00 51 C4 00 00 51  Length = 232242 BitCount = 120 ID = 1795  // 1  OTP(12) Atom 703->70B : CF Seq.Nr.:   7         [ 00 00 51 C4 00 00 51 ]
  50.744939 1  703             Rx   d 8 28 C4 00 00 51 C4 00 00  Length = 234242 BitCount = 121 ID = 1795  // 1  OTP(12) Atom 703->70B : CF Seq.Nr.:   8         [ C4 00 00 51 C4 00 00 ]
  50.745175 1  703             Rx   d 8 29 51 C4 00 00 51 C4 00  Length = 230242 BitCount = 119 ID = 1795  // 1  OTP(12) Atom 703->70B : CF Seq.Nr.:   9         [ 51 C4 00 00 51 C4 00 ]
  50.745411 1  703             Rx   d 8 2A 00 51 C4 00 00 51 C4  Length = 230242 BitCount = 119 ID = 1795  // 1  OTP(12) Atom 703->70B : CF Seq.Nr.:   A         [ 00 51 C4 00 00 51 C4 ]
  50.745650 1  703             Rx   d 8 2B 00 00 51 C4 00 00 51  Length = 232242 BitCount = 120 ID = 1795  // 1  OTP(12) Atom 703->70B : CF Seq.Nr.:   B         [ 00 00 51 C4 00 00 51 ]
  50.745892 1  703             Rx   d 8 2C C4 00 00 51 C4 00 00  Length = 236242 BitCount = 122 ID = 1795  // 1  OTP(12) Atom 703->70B : CF Seq.Nr.:   C         [ C4 00 00 51 C4 00 00 ]
  50.746130 1  703             Rx   d 8 2D 51 C4 00 00 51 C4 00  Length = 232242 BitCount = 120 ID = 1795  // 1  OTP(12) Atom 703->70B : CF Seq.Nr.:   D         [ 51 C4 00 00 51 C4 00 ]
  50.746368 1  703             Rx   d 8 2E 00 51 C4 00 00 51 C4  Length = 232242 BitCount = 120 ID = 1795  // 1  OTP(12) Atom 703->70B : CF Seq.Nr.:   E         [ 00 51 C4 00 00 51 C4 ]
  50.746607 1  703             Rx   d 8 2F 00 00 51 C4 00 00 51  Length = 232242 BitCount = 120 ID = 1795  // 1  OTP(12) Atom 703->70B : CF Seq.Nr.:   F         [ 00 00 51 C4 00 00 51 ]
  50.746847 1  703             Rx   d 8 20 C4 00 00 51 C4 00 00  Length = 234242 BitCount = 121 ID = 1795  // 1  OTP(12) Atom 703->70B : CF Seq.Nr.:   0         [ C4 00 00 51 C4 00 00 ]
  50.747085 1  703             Rx   d 8 21 51 C4 00 00 51 C4 00  Length = 232000 BitCount = 120 ID = 1795  // 1  OTP(12) Atom 703->70B : CF Seq.Nr.:   1         [ 51 C4 00 00 51 C4 00 ]
  50.747321 1  703             Rx   d 8 22 00 51 C4 00 00 51 C4  Length = 230000 BitCount = 119 ID = 1795  // 1  OTP(12) Atom 703->70B : CF Seq.Nr.:   2         [ 00 51 C4 00 00 51 C4 ]
  50.747559 1  703             Rx   d 8 23 00 00 51 C4 00 00 51  Length = 232000 BitCount = 120 ID = 1795  // 1  OTP(12) Atom 703->70B : CF Seq.Nr.:   3         [ 00 00 51 C4 00 00 51 ]
  50.747797 1  703             Rx   d 8 24 C4 00 00 51 C4 00 00  Length = 232000 BitCount = 120 ID = 1795  // 1  OTP(12) Atom 703->70B : CF Seq.Nr.:   4         [ C4 00 00 51 C4 00 00 ]
  50.748033 1  703             Rx   d 8 25 51 C4 00 00 51 C4 00  Length = 230000 BitCount = 119 ID = 1795  // 1  OTP(12) Atom 703->70B : CF Seq.Nr.:   5         [ 51 C4 00 00 51 C4 00 ]
  50.748273 1  703             Rx   d 8 26 00 61 2D 01 00 01 32  Length = 234000 BitCount = 121 ID = 1795  // 1  OTP(12) Atom 703->70B : CF Seq.Nr.:   6         [ 00 61 2D 01 00 01 32 ]
  50.748513 1  703             Rx   d 8 27 02 00 6D 2D 01 00 0D  Length = 234242 BitCount = 121 ID = 1795  // 1  OTP(12) Atom 703->70B : CF Seq.Nr.:   7         [ 02 00 6D 2D 01 00 0D ]
  50.748753 1  703             Rx   d 8 28 32 02 00 0D 32 02 00  Length = 234242 BitCount = 121 ID = 1795  // 1  OTP(12) Atom 703->70B : CF Seq.Nr.:   8         [ 32 02 00 0D 32 02 00 ]
  50.748990 1  703             Rx   d 8 29 51 C4 00 00 51 C4 00  Length = 230242 BitCount = 119 ID = 1795  // 1  OTP(12) Atom 703->70B : CF Seq.Nr.:   9         [ 51 C4 00 00 51 C4 00 ]
  50.749228 1  703             Rx   d 8 2A 00 79 2D 01 00 19 32  Length = 232242 BitCount = 120 ID = 1795  // 1  OTP(12) Atom 703->70B : CF Seq.Nr.:   A         [ 00 79 2D 01 00 19 32 ]
  50.749468 1  703             Rx   d 8 2B 02 00 51 C4 00 00 25  Length = 234242 BitCount = 121 ID = 1795  // 1  OTP(12) Atom 703->70B : CF Seq.Nr.:   B         [ 02 00 51 C4 00 00 25 ]
  50.749706 1  703             Rx   d 8 2C 32 02 00 51 C4 00 00  Length = 232242 BitCount = 120 ID = 1795  // 1  OTP(12) Atom 703->70B : CF Seq.Nr.:   C         [ 32 02 00 51 C4 00 00 ]
  50.749945 1  703             Rx   d 8 2D 51 C4 00 00 51 C4 00  Length = 232242 BitCount = 120 ID = 1795  // 1  OTP(12) Atom 703->70B : CF Seq.Nr.:   D         [ 51 C4 00 00 51 C4 00 ]
  50.750179 1  703             Rx   d 8 2E 00 85 2D 01 00 51 C4  Length = 228242 BitCount = 118 ID = 1795  // 1  OTP(12) Atom 703->70B : CF Seq.Nr.:   E         [ 00 85 2D 01 00 51 C4 ]
  50.750417 1  703             Rx   d 8 2F 00 00 51 C4 00 00 51  Length = 232242 BitCount = 120 ID = 1795  // 1  OTP(12) Atom 703->70B : CF Seq.Nr.:   F         [ 00 00 51 C4 00 00 51 ]
  50.750657 1  703             Rx   d 8 20 C4 00 00 51 C4 00 00  Length = 234242 BitCount = 121 ID = 1795  // 1  OTP(12) Atom 703->70B : CF Seq.Nr.:   0         [ C4 00 00 51 C4 00 00 ]
  50.751051 1  703             Rx   d 8 21 51 C4 00 00 51 C4 00  Length = 232000 BitCount = 120 ID = 1795  // 1  OTP(12) Atom 703->70B : CF Seq.Nr.:   1         [ 51 C4 00 00 51 C4 00 ]
  50.751287 1  703             Rx   d 8 22 00 29 21 01 00 39 21  Length = 230000 BitCount = 119 ID = 1795  // 1  OTP(12) Atom 703->70B : CF Seq.Nr.:   2         [ 00 29 21 01 00 39 21 ]
  50.751521 1  703             Rx   d 8 23 01 00 49 21 01 00 59  Length = 228000 BitCount = 118 ID = 1795  // 1  OTP(12) Atom 703->70B : CF Seq.Nr.:   3         [ 01 00 49 21 01 00 59 ]
  50.751759 1  703             Rx   d 8 24 21 01 00 51 C4 00 00  Length = 232000 BitCount = 120 ID = 1795  // 1  OTP(12) Atom 703->70B : CF Seq.Nr.:   4         [ 21 01 00 51 C4 00 00 ]
  50.751993 1  703             Rx   d 8 25 51 C4 00 00 69 21 01  Length = 228000 BitCount = 118 ID = 1795  // 1  OTP(12) Atom 703->70B : CF Seq.Nr.:   5         [ 51 C4 00 00 69 21 01 ]
  50.752231 1  703             Rx   d 8 26 00 79 21 01 00 89 21  Length = 232000 BitCount = 120 ID = 1795  // 1  OTP(12) Atom 703->70B : CF Seq.Nr.:   6         [ 00 79 21 01 00 89 21 ]
  50.752466 1  703             Rx   d 8 27 01 00 99 21 01 00 51  Length = 228242 BitCount = 118 ID = 1795  // 1  OTP(12) Atom 703->70B : CF Seq.Nr.:   7         [ 01 00 99 21 01 00 51 ]
  50.752706 1  703             Rx   d 8 28 C4 00 00 51 C4 00 00  Length = 234242 BitCount = 121 ID = 1795  // 1  OTP(12) Atom 703->70B : CF Seq.Nr.:   8         [ C4 00 00 51 C4 00 00 ]
  50.752938 1  703             Rx   d 8 29 A9 21 01 00 B9 21 01  Length = 226242 BitCount = 117 ID = 1795  // 1  OTP(12) Atom 703->70B : CF Seq.Nr.:   9         [ A9 21 01 00 B9 21 01 ]
  50.753172 1  703             Rx   d 8 2A 00 C9 21 01 00 D9 21  Length = 228242 BitCount = 118 ID = 1795  // 1  OTP(12) Atom 703->70B : CF Seq.Nr.:   A         [ 00 C9 21 01 00 D9 21 ]
  50.753409 1  703             Rx   d 8 2B 01 00 51 C4 00 00 51  Length = 230242 BitCount = 119 ID = 1795  // 1  OTP(12) Atom 703->70B : CF Seq.Nr.:   B         [ 01 00 51 C4 00 00 51 ]
  50.753649 1  703             Rx   d 8 2C C4 00 00 E9 21 01 00  Length = 234242 BitCount = 121 ID = 1795  // 1  OTP(12) Atom 703->70B : CF Seq.Nr.:   C         [ C4 00 00 E9 21 01 00 ]
  50.753885 1  703             Rx   d 8 2D F9 21 01 00 09 22 01  Length = 230242 BitCount = 119 ID = 1795  // 1  OTP(12) Atom 703->70B : CF Seq.Nr.:   D         [ F9 21 01 00 09 22 01 ]
  50.754119 1  703             Rx   d 8 2E 00 19 22 01 00 51 C4  Length = 228242 BitCount = 118 ID = 1795  // 1  OTP(12) Atom 703->70B : CF Seq.Nr.:   E         [ 00 19 22 01 00 51 C4 ]
  50.754358 1  703             Rx   d 8 2F 00 00 51 C4 00 00 51  Length = 232242 BitCount = 120 ID = 1795  // 1  OTP(12) Atom 703->70B : CF Seq.Nr.:   F         [ 00 00 51 C4 00 00 51 ]
  50.754598 1  703             Rx   d 8 20 C4 00 00 51 C4 00 00  Length = 234242 BitCount = 121 ID = 1795  // 1  OTP(12) Atom 703->70B : CF Seq.Nr.:   0         [ C4 00 00 51 C4 00 00 ]
  50.754836 1  703             Rx   d 8 21 51 C4 00 00 51 C4 00  Length = 232000 BitCount = 120 ID = 1795  // 1  OTP(12) Atom 703->70B : CF Seq.Nr.:   1         [ 51 C4 00 00 51 C4 00 ]
  50.755072 1  703             Rx   d 8 22 00 51 C4 00 00 51 C4  Length = 230000 BitCount = 119 ID = 1795  // 1  OTP(12) Atom 703->70B : CF Seq.Nr.:   2         [ 00 51 C4 00 00 51 C4 ]
  50.755310 1  703             Rx   d 8 23 00 00 51 C4 00 00 51  Length = 232000 BitCount = 120 ID = 1795  // 1  OTP(12) Atom 703->70B : CF Seq.Nr.:   3         [ 00 00 51 C4 00 00 51 ]
  50.755548 1  703             Rx   d 8 24 C4 00 00 51 C4 00 00  Length = 232000 BitCount = 120 ID = 1795  // 1  OTP(12) Atom 703->70B : CF Seq.Nr.:   4         [ C4 00 00 51 C4 00 00 ]
  50.755784 1  703             Rx   d 8 25 51 C4 00 00 51 C4 00  Length = 230000 BitCount = 119 ID = 1795  // 1  OTP(12) Atom 703->70B : CF Seq.Nr.:   5         [ 51 C4 00 00 51 C4 00 ]
  50.756020 1  703             Rx   d 8 26 00 51 C4 00 00 51 C4  Length = 230000 BitCount = 119 ID = 1795  // 1  OTP(12) Atom 703->70B : CF Seq.Nr.:   6         [ 00 51 C4 00 00 51 C4 ]
  50.756258 1  703             Rx   d 8 27 00 00 51 C4 00 00 51  Length = 232242 BitCount = 120 ID = 1795  // 1  OTP(12) Atom 703->70B : CF Seq.Nr.:   7         [ 00 00 51 C4 00 00 51 ]
  50.756498 1  703             Rx   d 8 28 C4 00 00 51 C4 00 00  Length = 234242 BitCount = 121 ID = 1795  // 1  OTP(12) Atom 703->70B : CF Seq.Nr.:   8         [ C4 00 00 51 C4 00 00 ]
  50.756735 1  703             Rx   d 8 29 51 C4 00 00 51 C4 00  Length = 230242 BitCount = 119 ID = 1795  // 1  OTP(12) Atom 703->70B : CF Seq.Nr.:   9         [ 51 C4 00 00 51 C4 00 ]
  50.756971 1  703             Rx   d 8 2A 00 51 C4 00 00 51 C4  Length = 230242 BitCount = 119 ID = 1795  // 1  OTP(12) Atom 703->70B : CF Seq.Nr.:   A         [ 00 51 C4 00 00 51 C4 ]
  50.757209 1  703             Rx   d 8 2B 00 00 51 C4 00 00 51  Length = 232242 BitCount = 120 ID = 1795  // 1  OTP(12) Atom 703->70B : CF Seq.Nr.:   B         [ 00 00 51 C4 00 00 51 ]
  50.757451 1  703             Rx   d 8 2C C4 00 00 51 C4 00 00  Length = 236242 BitCount = 122 ID = 1795  // 1  OTP(12) Atom 703->70B : CF Seq.Nr.:   C         [ C4 00 00 51 C4 00 00 ]
  50.757690 1  703             Rx   d 8 2D 51 C4 00 00 51 C4 00  Length = 232242 BitCount = 120 ID = 1795  // 1  OTP(12) Atom 703->70B : CF Seq.Nr.:   D         [ 51 C4 00 00 51 C4 00 ]
  50.757928 1  703             Rx   d 8 2E 00 51 C4 00 00 51 C4  Length = 232242 BitCount = 120 ID = 1795  // 1  OTP(12) Atom 703->70B : CF Seq.Nr.:   E         [ 00 51 C4 00 00 51 C4 ]
  50.758166 1  703             Rx   d 8 2F 00 00 51 C4 00 00 51  Length = 232242 BitCount = 120 ID = 1795  // 1  OTP(12) Atom 703->70B : CF Seq.Nr.:   F         [ 00 00 51 C4 00 00 51 ]
  50.758406 1  703             Rx   d 8 20 C4 00 00 51 C4 00 00  Length = 234242 BitCount = 121 ID = 1795  // 1  OTP(12) Atom 703->70B : CF Seq.Nr.:   0         [ C4 00 00 51 C4 00 00 ]
  50.758645 1  703             Rx   d 8 21 51 C4 00 00 51 C4 00  Length = 232242 BitCount = 120 ID = 1795  // 1  OTP(12) Atom 703->70B : CF Seq.Nr.:   1         [ 51 C4 00 00 51 C4 00 ]
  50.758881 1  703             Rx   d 8 22 00 51 C4 00 00 51 C4  Length = 230000 BitCount = 119 ID = 1795  // 1  OTP(12) Atom 703->70B : CF Seq.Nr.:   2         [ 00 51 C4 00 00 51 C4 ]
  50.759119 1  703             Rx   d 8 23 00 00 51 C4 00 00 51  Length = 232000 BitCount = 120 ID = 1795  // 1  OTP(12) Atom 703->70B : CF Seq.Nr.:   3         [ 00 00 51 C4 00 00 51 ]
  50.759357 1  703             Rx   d 8 24 C4 00 00 51 C4 00 00  Length = 232000 BitCount = 120 ID = 1795  // 1  OTP(12) Atom 703->70B : CF Seq.Nr.:   4         [ C4 00 00 51 C4 00 00 ]
  50.759593 1  703             Rx   d 8 25 51 C4 00 00 51 C4 00  Length = 230000 BitCount = 119 ID = 1795  // 1  OTP(12) Atom 703->70B : CF Seq.Nr.:   5         [ 51 C4 00 00 51 C4 00 ]
  50.759829 1  703             Rx   d 8 26 00 51 C4 00 00 51 C4  Length = 230000 BitCount = 119 ID = 1795  // 1  OTP(12) Atom 703->70B : CF Seq.Nr.:   6         [ 00 51 C4 00 00 51 C4 ]
  50.760067 1  703             Rx   d 8 27 00 00 51 C4 00 00 51  Length = 232000 BitCount = 120 ID = 1795  // 1  OTP(12) Atom 703->70B : CF Seq.Nr.:   7         [ 00 00 51 C4 00 00 51 ]
  50.760307 1  703             Rx   d 8 28 C4 00 00 51 C4 00 00  Length = 234242 BitCount = 121 ID = 1795  // 1  OTP(12) Atom 703->70B : CF Seq.Nr.:   8         [ C4 00 00 51 C4 00 00 ]
  50.760543 1  703             Rx   d 8 29 51 C4 00 00 51 C4 00  Length = 230242 BitCount = 119 ID = 1795  // 1  OTP(12) Atom 703->70B : CF Seq.Nr.:   9         [ 51 C4 00 00 51 C4 00 ]
  50.760779 1  703             Rx   d 8 2A 00 51 C4 00 00 51 C4  Length = 230242 BitCount = 119 ID = 1795  // 1  OTP(12) Atom 703->70B : CF Seq.Nr.:   A         [ 00 51 C4 00 00 51 C4 ]
  50.761018 1  703             Rx   d 8 2B 00 00 51 C4 00 00 51  Length = 232242 BitCount = 120 ID = 1795  // 1  OTP(12) Atom 703->70B : CF Seq.Nr.:   B         [ 00 00 51 C4 00 00 51 ]
  50.761260 1  703             Rx   d 8 2C C4 00 00 51 C4 00 00  Length = 236242 BitCount = 122 ID = 1795  // 1  OTP(12) Atom 703->70B : CF Seq.Nr.:   C         [ C4 00 00 51 C4 00 00 ]
  50.761498 1  703             Rx   d 8 2D 51 C4 00 00 51 C4 00  Length = 232242 BitCount = 120 ID = 1795  // 1  OTP(12) Atom 703->70B : CF Seq.Nr.:   D         [ 51 C4 00 00 51 C4 00 ]
  50.761736 1  703             Rx   d 8 2E 00 51 C4 00 00 51 C4  Length = 232242 BitCount = 120 ID = 1795  // 1  OTP(12) Atom 703->70B : CF Seq.Nr.:   E         [ 00 51 C4 00 00 51 C4 ]
  50.761975 1  703             Rx   d 8 2F 00 00 51 C4 00 00 51  Length = 232242 BitCount = 120 ID = 1795  // 1  OTP(12) Atom 703->70B : CF Seq.Nr.:   F         [ 00 00 51 C4 00 00 51 ]
  50.762215 1  703             Rx   d 8 20 C4 00 00 51 C4 00 00  Length = 234242 BitCount = 121 ID = 1795  // 1  OTP(12) Atom 703->70B : CF Seq.Nr.:   0         [ C4 00 00 51 C4 00 00 ]
  50.762453 1  703             Rx   d 8 21 51 C4 00 00 51 C4 00  Length = 232242 BitCount = 120 ID = 1795  // 1  OTP(12) Atom 703->70B : CF Seq.Nr.:   1         [ 51 C4 00 00 51 C4 00 ]
  50.762689 1  703             Rx   d 8 22 00 51 C4 00 00 51 C4  Length = 230000 BitCount = 119 ID = 1795  // 1  OTP(12) Atom 703->70B : CF Seq.Nr.:   2         [ 00 51 C4 00 00 51 C4 ]
  50.762927 1  703             Rx   d 8 23 00 00 51 C4 00 00 51  Length = 232000 BitCount = 120 ID = 1795  // 1  OTP(12) Atom 703->70B : CF Seq.Nr.:   3         [ 00 00 51 C4 00 00 51 ]
  50.763165 1  703             Rx   d 8 24 C4 00 00 51 C4 00 00  Length = 232000 BitCount = 120 ID = 1795  // 1  OTP(12) Atom 703->70B : CF Seq.Nr.:   4         [ C4 00 00 51 C4 00 00 ]
  50.763401 1  703             Rx   d 8 25 51 C4 00 00 51 C4 00  Length = 230000 BitCount = 119 ID = 1795  // 1  OTP(12) Atom 703->70B : CF Seq.Nr.:   5         [ 51 C4 00 00 51 C4 00 ]
  50.763637 1  703             Rx   d 8 26 00 51 C4 00 00 51 C4  Length = 230000 BitCount = 119 ID = 1795  // 1  OTP(12) Atom 703->70B : CF Seq.Nr.:   6         [ 00 51 C4 00 00 51 C4 ]
  50.763875 1  703             Rx   d 8 27 00 00 51 C4 00 00 51  Length = 232000 BitCount = 120 ID = 1795  // 1  OTP(12) Atom 703->70B : CF Seq.Nr.:   7         [ 00 00 51 C4 00 00 51 ]
  50.764115 1  703             Rx   d 8 28 C4 00 00 51 C4 00 00  Length = 234242 BitCount = 121 ID = 1795  // 1  OTP(12) Atom 703->70B : CF Seq.Nr.:   8         [ C4 00 00 51 C4 00 00 ]
  50.764352 1  703             Rx   d 8 29 51 C4 00 00 51 C4 00  Length = 230242 BitCount = 119 ID = 1795  // 1  OTP(12) Atom 703->70B : CF Seq.Nr.:   9         [ 51 C4 00 00 51 C4 00 ]
  50.764588 1  703             Rx   d 8 2A 00 51 C4 00 00 51 C4  Length = 230242 BitCount = 119 ID = 1795  // 1  OTP(12) Atom 703->70B : CF Seq.Nr.:   A         [ 00 51 C4 00 00 51 C4 ]
  50.764826 1  703             Rx   d 8 2B 00 00 51 C4 00 00 51  Length = 232242 BitCount = 120 ID = 1795  // 1  OTP(12) Atom 703->70B : CF Seq.Nr.:   B         [ 00 00 51 C4 00 00 51 ]
  50.765068 1  703             Rx   d 8 2C C4 00 00 51 C4 00 00  Length = 236242 BitCount = 122 ID = 1795  // 1  OTP(12) Atom 703->70B : CF Seq.Nr.:   C         [ C4 00 00 51 C4 00 00 ]
  50.765307 1  703             Rx   d 8 2D 51 C4 00 00 51 C4 00  Length = 232242 BitCount = 120 ID = 1795  // 1  OTP(12) Atom 703->70B : CF Seq.Nr.:   D         [ 51 C4 00 00 51 C4 00 ]
  50.765545 1  703             Rx   d 8 2E 00 51 C4 00 00 51 C4  Length = 232242 BitCount = 120 ID = 1795  // 1  OTP(12) Atom 703->70B : CF Seq.Nr.:   E         [ 00 51 C4 00 00 51 C4 ]
  50.765783 1  703             Rx   d 8 2F 00 00 51 C4 00 00 51  Length = 232242 BitCount = 120 ID = 1795  // 1  OTP(12) Atom 703->70B : CF Seq.Nr.:   F         [ 00 00 51 C4 00 00 51 ]
  50.766023 1  703             Rx   d 8 20 C4 00 00 51 C4 00 00  Length = 234242 BitCount = 121 ID = 1795  // 1  OTP(12) Atom 703->70B : CF Seq.Nr.:   0         [ C4 00 00 51 C4 00 00 ]
  50.766394 1  703             Rx   d 8 21 51 C4 00 00 51 C4 00  Length = 232242 BitCount = 120 ID = 1795  // 1  OTP(12) Atom 703->70B : CF Seq.Nr.:   1         [ 51 C4 00 00 51 C4 00 ]
  50.766630 1  703             Rx   d 8 22 00 51 C4 00 00 51 C4  Length = 230242 BitCount = 119 ID = 1795  // 1  OTP(12) Atom 703->70B : CF Seq.Nr.:   2         [ 00 51 C4 00 00 51 C4 ]
  50.766868 1  703             Rx   d 8 23 00 00 51 C4 00 00 51  Length = 232000 BitCount = 120 ID = 1795  // 1  OTP(12) Atom 703->70B : CF Seq.Nr.:   3         [ 00 00 51 C4 00 00 51 ]
  50.767106 1  703             Rx   d 8 24 C4 00 00 51 C4 00 00  Length = 232000 BitCount = 120 ID = 1795  // 1  OTP(12) Atom 703->70B : CF Seq.Nr.:   4         [ C4 00 00 51 C4 00 00 ]
  50.767342 1  703             Rx   d 8 25 51 C4 00 00 51 C4 00  Length = 230000 BitCount = 119 ID = 1795  // 1  OTP(12) Atom 703->70B : CF Seq.Nr.:   5         [ 51 C4 00 00 51 C4 00 ]
  50.767578 1  703             Rx   d 8 26 00 51 C4 00 00 51 C4  Length = 230000 BitCount = 119 ID = 1795  // 1  OTP(12) Atom 703->70B : CF Seq.Nr.:   6         [ 00 51 C4 00 00 51 C4 ]
  50.767816 1  703             Rx   d 8 27 00 00 51 C4 00 00 51  Length = 232000 BitCount = 120 ID = 1795  // 1  OTP(12) Atom 703->70B : CF Seq.Nr.:   7         [ 00 00 51 C4 00 00 51 ]
  50.768056 1  703             Rx   d 8 28 C4 00 00 51 C4 00 00  Length = 234242 BitCount = 121 ID = 1795  // 1  OTP(12) Atom 703->70B : CF Seq.Nr.:   8         [ C4 00 00 51 C4 00 00 ]
  50.768292 1  703             Rx   d 8 29 51 C4 00 00 51 C4 00  Length = 230242 BitCount = 119 ID = 1795  // 1  OTP(12) Atom 703->70B : CF Seq.Nr.:   9         [ 51 C4 00 00 51 C4 00 ]
  50.768529 1  703             Rx   d 8 2A 00 51 C4 00 00 51 C4  Length = 230242 BitCount = 119 ID = 1795  // 1  OTP(12) Atom 703->70B : CF Seq.Nr.:   A         [ 00 51 C4 00 00 51 C4 ]
  50.768767 1  703             Rx   d 8 2B 00 00 51 C4 00 00 51  Length = 232242 BitCount = 120 ID = 1795  // 1  OTP(12) Atom 703->70B : CF Seq.Nr.:   B         [ 00 00 51 C4 00 00 51 ]
  50.769009 1  703             Rx   d 8 2C C4 00 00 51 C4 00 00  Length = 236242 BitCount = 122 ID = 1795  // 1  OTP(12) Atom 703->70B : CF Seq.Nr.:   C         [ C4 00 00 51 C4 00 00 ]
  50.769247 1  703             Rx   d 8 2D 51 C4 00 00 51 C4 00  Length = 232242 BitCount = 120 ID = 1795  // 1  OTP(12) Atom 703->70B : CF Seq.Nr.:   D         [ 51 C4 00 00 51 C4 00 ]
  50.769486 1  703             Rx   d 8 2E 00 51 C4 00 00 51 C4  Length = 232242 BitCount = 120 ID = 1795  // 1  OTP(12) Atom 703->70B : CF Seq.Nr.:   E         [ 00 51 C4 00 00 51 C4 ]
  50.769724 1  703             Rx   d 8 2F 00 00 51 C4 00 00 51  Length = 232242 BitCount = 120 ID = 1795  // 1  OTP(12) Atom 703->70B : CF Seq.Nr.:   F         [ 00 00 51 C4 00 00 51 ]
  50.769964 1  703             Rx   d 8 20 C4 00 00 51 C4 00 00  Length = 234242 BitCount = 121 ID = 1795  // 1  OTP(12) Atom 703->70B : CF Seq.Nr.:   0         [ C4 00 00 51 C4 00 00 ]
  50.770202 1  703             Rx   d 8 21 51 C4 00 00 51 C4 00  Length = 232242 BitCount = 120 ID = 1795  // 1  OTP(12) Atom 703->70B : CF Seq.Nr.:   1         [ 51 C4 00 00 51 C4 00 ]
  50.770451 1  703             Rx   d 8 22 00 FF FF FF FF FF FF  Length = 242242 BitCount = 125 ID = 1795  // 1  OTP(12) Atom 703->70B : CF Seq.Nr.:   2         [ 00 FF FF FF FF FF FF ]
  50.770699 1  703             Rx   d 8 23 FF FF FF FF FF FF FF  Length = 242000 BitCount = 125 ID = 1795  // 1  OTP(12) Atom 703->70B : CF Seq.Nr.:   3         [ FF FF FF FF FF FF FF ]
  50.770949 1  703             Rx   d 8 24 FF FF FF FE 7F FF FF  Length = 244000 BitCount = 126 ID = 1795  // 1  OTP(12) Atom 703->70B : CF Seq.Nr.:   4         [ FF FF FF FE 7F FF FF ]
  50.771179 1  703             Rx   d 8 25 72 B6 0B 49 0A 4A 0A  Length = 224000 BitCount = 116 ID = 1795  // 1  OTP(12) Atom 703->70B : CF Seq.Nr.:   5         [ 72 B6 0B 49 0A 4A 0A ]
  50.771409 1  703             Rx   d 8 26 4B 09 4C 09 4D 08 4E  Length = 224000 BitCount = 116 ID = 1795  // 1  OTP(12) Atom 703->70B : CF Seq.Nr.:   6         [ 4B 09 4C 09 4D 08 4E ]
  50.771637 1  703             Rx   d 8 27 08 4F B8 46 B9 46 BA  Length = 222000 BitCount = 115 ID = 1795  // 1  OTP(12) Atom 703->70B : CF Seq.Nr.:   7         [ 08 4F B8 46 B9 46 BA ]
  50.771865 1  703             Rx   d 8 28 46 BB 46 BC 46 06 48  Length = 222000 BitCount = 115 ID = 1795  // 1  OTP(12) Atom 703->70B : CF Seq.Nr.:   8         [ 46 BB 46 BC 46 06 48 ]
  50.772097 1  703             Rx   d 8 29 85 46 06 48 80 47 06  Length = 226242 BitCount = 117 ID = 1795  // 1  OTP(12) Atom 703->70B : CF Seq.Nr.:   9         [ 85 46 06 48 80 47 06 ]
  50.772331 1  703             Rx   d 8 2A 48 80 47 62 B6 17 F0  Length = 228242 BitCount = 118 ID = 1795  // 1  OTP(12) Atom 703->70B : CF Seq.Nr.:   A         [ 48 80 47 62 B6 17 F0 ]
  50.772573 1  703             Rx   d 8 2B 94 FF FE E7 00 00 00  Length = 236242 BitCount = 122 ID = 1795  // 1  OTP(12) Atom 703->70B : CF Seq.Nr.:   B         [ 94 FF FE E7 00 00 00 ]
  50.772820 1  703             Rx   d 8 2C 00 00 00 00 70 00 20  Length = 240242 BitCount = 124 ID = 1795  // 1  OTP(12) Atom 703->70B : CF Seq.Nr.:   C         [ 00 00 00 00 70 00 20 ]
  50.773060 1  703             Rx   d 8 2D 05 7C 01 00 F5 7A 01  Length = 234242 BitCount = 121 ID = 1795  // 1  OTP(12) Atom 703->70B : CF Seq.Nr.:   D         [ 05 7C 01 00 F5 7A 01 ]
  50.773304 1  703             Rx   d 8 2E 00 FF F7 FE BF 81 F0  Length = 238242 BitCount = 123 ID = 1795  // 1  OTP(12) Atom 703->70B : CF Seq.Nr.:   E         [ 00 FF F7 FE BF 81 F0 ]
  50.773544 1  703             Rx   d 8 2F 00 41 02 E0 00 BF 83  Length = 234242 BitCount = 121 ID = 1795  // 1  OTP(12) Atom 703->70B : CF Seq.Nr.:   F         [ 00 41 02 E0 00 BF 83 ]
  50.773781 1  703             Rx   d 8 20 F0 00 43 30 B5 4F EA  Length = 230242 BitCount = 119 ID = 1795  // 1  OTP(12) Atom 703->70B : CF Seq.Nr.:   0         [ F0 00 43 30 B5 4F EA ]
  50.774015 1  703             Rx   d 8 21 41 04 4F EA 43 05 94  Length = 228242 BitCount = 118 ID = 1795  // 1  OTP(12) Atom 703->70B : CF Seq.Nr.:   1         [ 41 04 4F EA 43 05 94 ]
  50.774245 1  703             Rx   d 8 22 EA 05 0F 08 BF 90 EA  Length = 224242 BitCount = 116 ID = 1795  // 1  OTP(12) Atom 703->70B : CF Seq.Nr.:   2         [ EA 05 0F 08 BF 90 EA ]
  50.774483 1  703             Rx   d 8 23 02 0F 1F BF 54 EA 00  Length = 232000 BitCount = 120 ID = 1795  // 1  OTP(12) Atom 703->70B : CF Seq.Nr.:   3         [ 02 0F 1F BF 54 EA 00 ]
  50.774719 1  703             Rx   d 8 24 0C 55 EA 02 0C 7F EA  Length = 230000 BitCount = 119 ID = 1795  // 1  OTP(12) Atom 703->70B : CF Seq.Nr.:   4         [ 0C 55 EA 02 0C 7F EA ]
  50.774957 1  703             Rx   d 8 25 64 5C 7F EA 65 5C 00  Length = 232000 BitCount = 120 ID = 1795  // 1  OTP(12) Atom 703->70B : CF Seq.Nr.:   5         [ 64 5C 7F EA 65 5C 00 ]
  50.775187 1  703             Rx   d 8 26 F0 E2 80 4F EA 54 54  Length = 224000 BitCount = 116 ID = 1795  // 1  OTP(12) Atom 703->70B : CF Seq.Nr.:   6         [ F0 E2 80 4F EA 54 54 ]
  50.775417 1  703             Rx   d 8 27 D4 EB 55 55 B8 BF 6D  Length = 224000 BitCount = 116 ID = 1795  // 1  OTP(12) Atom 703->70B : CF Seq.Nr.:   7         [ D4 EB 55 55 B8 BF 6D ]
  50.775647 1  703             Rx   d 8 28 42 0C DD 2C 44 80 EA  Length = 224000 BitCount = 116 ID = 1795  // 1  OTP(12) Atom 703->70B : CF Seq.Nr.:   8         [ 42 0C DD 2C 44 80 EA ]
  50.775885 1  703             Rx   d 8 29 02 02 81 EA 03 03 82  Length = 232242 BitCount = 120 ID = 1795  // 1  OTP(12) Atom 703->70B : CF Seq.Nr.:   9         [ 02 02 81 EA 03 03 82 ]
  50.776126 1  703             Rx   d 8 2A EA 00 00 83 EA 01 01  Length = 234242 BitCount = 121 ID = 1795  // 1  OTP(12) Atom 703->70B : CF Seq.Nr.:   A         [ EA 00 00 83 EA 01 01 ]
  50.776364 1  703             Rx   d 8 2B 80 EA 02 02 81 EA 03  Length = 232242 BitCount = 120 ID = 1795  // 1  OTP(12) Atom 703->70B : CF Seq.Nr.:   B         [ 80 EA 02 02 81 EA 03 ]
  50.776594 1  703             Rx   d 8 2C 03 36 2D 88 BF 30 BD  Length = 224242 BitCount = 116 ID = 1795  // 1  OTP(12) Atom 703->70B : CF Seq.Nr.:   C         [ 03 36 2D 88 BF 30 BD ]
  50.776832 1  703             Rx   d 8 2D 11 F0 00 4F 4F EA 01  Length = 232242 BitCount = 120 ID = 1795  // 1  OTP(12) Atom 703->70B : CF Seq.Nr.:   D         [ 11 F0 00 4F 4F EA 01 ]
  50.777065 1  703             Rx   d 8 2E 31 4F F4 80 1C 4C EA  Length = 226242 BitCount = 117 ID = 1795  // 1  OTP(12) Atom 703->70B : CF Seq.Nr.:   E         [ 31 4F F4 80 1C 4C EA ]
  50.777299 1  703             Rx   d 8 2F 11 31 02 D0 40 42 61  Length = 228242 BitCount = 118 ID = 1795  // 1  OTP(12) Atom 703->70B : CF Seq.Nr.:   F         [ 11 31 02 D0 40 42 61 ]
  50.777541 1  703             Rx   d 8 20 EB 41 01 13 F0 00 4F  Length = 236242 BitCount = 122 ID = 1795  // 1  OTP(12) Atom 703->70B : CF Seq.Nr.:   0         [ EB 41 01 13 F0 00 4F ]
  50.777773 1  703             Rx   d 8 21 4F EA 03 33 4C EA 13  Length = 226242 BitCount = 117 ID = 1795  // 1  OTP(12) Atom 703->70B : CF Seq.Nr.:   1         [ 4F EA 03 33 4C EA 13 ]
  50.778006 1  703             Rx   d 8 22 33 02 D0 52 42 63 EB  Length = 226242 BitCount = 117 ID = 1795  // 1  OTP(12) Atom 703->70B : CF Seq.Nr.:   2         [ 33 02 D0 52 42 63 EB ]
  50.778238 1  703             Rx   d 8 23 43 03 94 EA 05 0F 00  Length = 226242 BitCount = 117 ID = 1795  // 1  OTP(12) Atom 703->70B : CF Seq.Nr.:   3         [ 43 03 94 EA 05 0F 00 ]
  50.778472 1  703             Rx   d 8 24 F0 A7 80 A4 F1 01 04  Length = 228000 BitCount = 118 ID = 1795  // 1  OTP(12) Atom 703->70B : CF Seq.Nr.:   4         [ F0 A7 80 A4 F1 01 04 ]
  50.778708 1  703             Rx   d 8 25 D5 F1 20 0E 0D DB 02  Length = 230000 BitCount = 119 ID = 1795  // 1  OTP(12) Atom 703->70B : CF Seq.Nr.:   5         [ D5 F1 20 0E 0D DB 02 ]
  50.778948 1  703             Rx   d 8 26 FA 0E FC 22 FA 05 F2  Length = 234000 BitCount = 121 ID = 1795  // 1  OTP(12) Atom 703->70B : CF Seq.Nr.:   6         [ FA 0E FC 22 FA 05 F2 ]
  50.779190 1  703             Rx   d 8 27 80 18 41 F1 00 01 03  Length = 236000 BitCount = 122 ID = 1795  // 1  OTP(12) Atom 703->70B : CF Seq.Nr.:   7         [ 80 18 41 F1 00 01 03 ]
  50.779426 1  703             Rx   d 8 28 FA 0E F2 80 18 43 FA  Length = 230000 BitCount = 119 ID = 1795  // 1  OTP(12) Atom 703->70B : CF Seq.Nr.:   8         [ FA 0E F2 80 18 43 FA ]
  50.779660 1  703             Rx   d 8 29 05 F3 59 41 0E E0 A5  Length = 228000 BitCount = 118 ID = 1795  // 1  OTP(12) Atom 703->70B : CF Seq.Nr.:   9         [ 05 F3 59 41 0E E0 A5 ]
  50.779892 1  703             Rx   d 8 2A F1 20 05 0E F1 20 0E  Length = 226242 BitCount = 117 ID = 1795  // 1  OTP(12) Atom 703->70B : CF Seq.Nr.:   A         [ F1 20 05 0E F1 20 0E ]
  50.780130 1  703             Rx   d 8 2B 01 2A 03 FA 0E FC 28  Length = 232242 BitCount = 120 ID = 1795  // 1  OTP(12) Atom 703->70B : CF Seq.Nr.:   B         [ 01 2A 03 FA 0E FC 28 ]
  50.780367 1  703             Rx   d 8 2C BF 4C F0 02 0C 43 FA  Length = 230242 BitCount = 119 ID = 1795  // 1  OTP(12) Atom 703->70B : CF Seq.Nr.:   C         [ BF 4C F0 02 0C 43 FA ]
  50.780601 1  703             Rx   d 8 2D 05 F3 C0 18 51 EB E3  Length = 228242 BitCount = 118 ID = 1795  // 1  OTP(12) Atom 703->70B : CF Seq.Nr.:   D         [ 05 F3 C0 18 51 EB E3 ]
  50.780839 1  703             Rx   d 8 2E 71 01 F0 00 45 07 D5  Length = 232242 BitCount = 120 ID = 1795  // 1  OTP(12) Atom 703->70B : CF Seq.Nr.:   E         [ 71 01 F0 00 45 07 D5 ]
  50.781075 1  703             Rx   d 8 2F 4F F0 00 0E DC F1 00  Length = 230242 BitCount = 119 ID = 1795  // 1  OTP(12) Atom 703->70B : CF Seq.Nr.:   F         [ 4F F0 00 0E DC F1 00 ]
  50.781312 1  703             Rx   d 8 20 0C 7E EB 00 00 6E EB  Length = 230242 BitCount = 119 ID = 1795  // 1  OTP(12) Atom 703->70B : CF Seq.Nr.:   0         [ 0C 7E EB 00 00 6E EB ]
  50.781828 1  703             Rx   d 8 21 01 01 B1 F5 80 1F 1B  Length = 236242 BitCount = 122 ID = 1795  // 1  OTP(12) Atom 703->70B : CF Seq.Nr.:   1         [ 01 01 B1 F5 80 1F 1B ]
  50.782066 1  703             Rx   d 8 22 D3 B1 F5 00 1F 0C D3  Length = 232242 BitCount = 120 ID = 1795  // 1  OTP(12) Atom 703->70B : CF Seq.Nr.:   2         [ D3 B1 F5 00 1F 0C D3 ]
  50.782300 1  703             Rx   d 8 23 49 08 5F EA 30 00 4F  Length = 228242 BitCount = 118 ID = 1795  // 1  OTP(12) Atom 703->70B : CF Seq.Nr.:   3         [ 49 08 5F EA 30 00 4F ]
  50.782534 1  703             Rx   d 8 24 EA 3C 0C 04 F1 01 04  Length = 228000 BitCount = 118 ID = 1795  // 1  OTP(12) Atom 703->70B : CF Seq.Nr.:   4         [ EA 3C 0C 04 F1 01 04 ]
  50.782766 1  703             Rx   d 8 25 4F EA 44 52 12 F5 80  Length = 226000 BitCount = 117 ID = 1795  // 1  OTP(12) Atom 703->70B : CF Seq.Nr.:   5         [ 4F EA 44 52 12 F5 80 ]
  50.783002 1  703             Rx   d 8 26 0F 80 F0 9A 80 BC F1  Length = 230000 BitCount = 119 ID = 1795  // 1  OTP(12) Atom 703->70B : CF Seq.Nr.:   6         [ 0F 80 F0 9A 80 BC F1 ]
  50.783238 1  703             Rx   d 8 27 00 4F 08 BF 5F EA 50  Length = 230000 BitCount = 119 ID = 1795  // 1  OTP(12) Atom 703->70B : CF Seq.Nr.:   7         [ 00 4F 08 BF 5F EA 50 ]
  50.783476 1  703             Rx   d 8 28 0C 50 F1 00 00 41 EB  Length = 232000 BitCount = 120 ID = 1795  // 1  OTP(12) Atom 703->70B : CF Seq.Nr.:   8         [ 0C 50 F1 00 00 41 EB ]
  50.783712 1  703             Rx   d 8 29 04 51 41 EA 05 01 30  Length = 230000 BitCount = 119 ID = 1795  // 1  OTP(12) Atom 703->70B : CF Seq.Nr.:   9         [ 04 51 41 EA 05 01 30 ]
  50.783947 1  703             Rx   d 8 2A BD 5F EA 4C 0C 40 41  Length = 228242 BitCount = 118 ID = 1795  // 1  OTP(12) Atom 703->70B : CF Seq.Nr.:   A         [ BD 5F EA 4C 0C 40 41 ]
  50.784187 1  703             Rx   d 8 2B 41 EB 01 01 11 F4 80  Length = 234242 BitCount = 121 ID = 1795  // 1  OTP(12) Atom 703->70B : CF Seq.Nr.:   B         [ 41 EB 01 01 11 F4 80 ]
  50.784421 1  703             Rx   d 8 2C 1F A4 F1 01 04 E9 D1  Length = 228242 BitCount = 118 ID = 1795  // 1  OTP(12) Atom 703->70B : CF Seq.Nr.:   C         [ 1F A4 F1 01 04 E9 D1 ]
  50.784661 1  703             Rx   d 8 2D 91 F0 00 0F 04 BF 01  Length = 234242 BitCount = 121 ID = 1795  // 1  OTP(12) Atom 703->70B : CF Seq.Nr.:   D         [ 91 F0 00 0F 04 BF 01 ]
  50.784900 1  703             Rx   d 8 2E 46 00 20 B1 FA 81 F3  Length = 232242 BitCount = 120 ID = 1795  // 1  OTP(12) Atom 703->70B : CF Seq.Nr.:   E         [ 46 00 20 B1 FA 81 F3 ]
  50.785132 1  703             Rx   d 8 2F 08 BF 20 33 A3 F1 0B  Length = 226242 BitCount = 117 ID = 1795  // 1  OTP(12) Atom 703->70B : CF Seq.Nr.:   F         [ 08 BF 20 33 A3 F1 0B ]
  50.785370 1  703             Rx   d 8 20 03 B3 F1 20 02 0C DA  Length = 232242 BitCount = 120 ID = 1795  // 1  OTP(12) Atom 703->70B : CF Seq.Nr.:   0         [ 03 B3 F1 20 02 0C DA ]
  50.785602 1  703             Rx   d 8 21 0C 32 08 DD 02 F1 14  Length = 226242 BitCount = 117 ID = 1795  // 1  OTP(12) Atom 703->70B : CF Seq.Nr.:   1         [ 0C 32 08 DD 02 F1 14 ]
  50.785841 1  703             Rx   d 8 22 0C C2 F1 0C 02 01 FA  Length = 232242 BitCount = 120 ID = 1795  // 1  OTP(12) Atom 703->70B : CF Seq.Nr.:   2         [ 0C C2 F1 0C 02 01 FA ]
  50.786075 1  703             Rx   d 8 23 0C F0 21 FA 02 F1 0C  Length = 228242 BitCount = 118 ID = 1795  // 1  OTP(12) Atom 703->70B : CF Seq.Nr.:   3         [ 0C F0 21 FA 02 F1 0C ]
  50.786309 1  703             Rx   d 8 24 E0 02 F1 14 02 D8 BF  Length = 228242 BitCount = 118 ID = 1795  // 1  OTP(12) Atom 703->70B : CF Seq.Nr.:   4         [ E0 02 F1 14 02 D8 BF ]
  50.786543 1  703             Rx   d 8 25 C2 F1 20 0C 01 FA 02  Length = 228000 BitCount = 118 ID = 1795  // 1  OTP(12) Atom 703->70B : CF Seq.Nr.:   5         [ C2 F1 20 0C 01 FA 02 ]
  50.786779 1  703             Rx   d 8 26 F1 20 FA 0C FC DC BF  Length = 230000 BitCount = 119 ID = 1795  // 1  OTP(12) Atom 703->70B : CF Seq.Nr.:   6         [ F1 20 FA 0C FC DC BF ]
  50.787019 1  703             Rx   d 8 27 41 EA 0C 01 90 40 E4  Length = 234000 BitCount = 121 ID = 1795  // 1  OTP(12) Atom 703->70B : CF Seq.Nr.:   7         [ 41 EA 0C 01 90 40 E4 ]
  50.787253 1  703             Rx   d 8 28 1A A2 BF 01 EB 04 51  Length = 228000 BitCount = 118 ID = 1795  // 1  OTP(12) Atom 703->70B : CF Seq.Nr.:   8         [ 1A A2 BF 01 EB 04 51 ]
  50.787483 1  703             Rx   d 8 29 29 43 30 BD 6F EA 04  Length = 224000 BitCount = 116 ID = 1795  // 1  OTP(12) Atom 703->70B : CF Seq.Nr.:   9         [ 29 43 30 BD 6F EA 04 ]
  50.787719 1  703             Rx   d 8 2A 04 1F 3C 1C DA 0C 34  Length = 230242 BitCount = 119 ID = 1795  // 1  OTP(12) Atom 703->70B : CF Seq.Nr.:   A         [ 04 1F 3C 1C DA 0C 34 ]
  50.787950 1  703             Rx   d 8 2B 0E DC 04 F1 14 04 C4  Length = 224242 BitCount = 116 ID = 1795  // 1  OTP(12) Atom 703->70B : CF Seq.Nr.:   B         [ 0E DC 04 F1 14 04 C4 ]
  50.788188 1  703             Rx   d 8 2C F1 20 02 20 FA 04 F0  Length = 232242 BitCount = 120 ID = 1795  // 1  OTP(12) Atom 703->70B : CF Seq.Nr.:   C         [ F1 20 02 20 FA 04 F0 ]
  50.788426 1  703             Rx   d 8 2D 01 FA 02 F3 40 EA 03  Length = 232242 BitCount = 120 ID = 1795  // 1  OTP(12) Atom 703->70B : CF Seq.Nr.:   D         [ 01 FA 02 F3 40 EA 03 ]
  50.788660 1  703             Rx   d 8 2E 00 21 FA 04 F3 45 EA  Length = 228242 BitCount = 118 ID = 1795  // 1  OTP(12) Atom 703->70B : CF Seq.Nr.:   E         [ 00 21 FA 04 F3 45 EA ]
  50.788893 1  703             Rx   d 8 2F 03 01 30 BD C4 F1 0C  Length = 226242 BitCount = 117 ID = 1795  // 1  OTP(12) Atom 703->70B : CF Seq.Nr.:   F         [ 03 01 30 BD C4 F1 0C ]
  50.789131 1  703             Rx   d 8 20 04 C4 F1 20 02 20 FA  Length = 232242 BitCount = 120 ID = 1795  // 1  OTP(12) Atom 703->70B : CF Seq.Nr.:   0         [ 04 C4 F1 20 02 20 FA ]
  50.789369 1  703             Rx   d 8 21 02 F0 01 FA 04 F3 40  Length = 232242 BitCount = 120 ID = 1795  // 1  OTP(12) Atom 703->70B : CF Seq.Nr.:   1         [ 02 F0 01 FA 04 F3 40 ]
  50.789601 1  703             Rx   d 8 22 EA 03 00 29 46 30 BD  Length = 226242 BitCount = 117 ID = 1795  // 1  OTP(12) Atom 703->70B : CF Seq.Nr.:   2         [ EA 03 00 29 46 30 BD ]
  50.789836 1  703             Rx   d 8 23 21 FA 04 F0 29 46 30  Length = 228242 BitCount = 118 ID = 1795  // 1  OTP(12) Atom 703->70B : CF Seq.Nr.:   3         [ 21 FA 04 F0 29 46 30 ]
  50.790074 1  703             Rx   d 8 24 BD 94 F0 00 0F 83 F4  Length = 232242 BitCount = 120 ID = 1795  // 1  OTP(12) Atom 703->70B : CF Seq.Nr.:   4         [ BD 94 F0 00 0F 83 F4 ]
  50.790318 1  703             Rx   d 8 25 80 13 06 BF 81 F4 80  Length = 238000 BitCount = 123 ID = 1795  // 1  OTP(12) Atom 703->70B : CF Seq.Nr.:   5         [ 80 13 06 BF 81 F4 80 ]
  50.790550 1  703             Rx   d 8 26 11 01 34 01 3D 4E E7  Length = 226000 BitCount = 117 ID = 1795  // 1  OTP(12) Atom 703->70B : CF Seq.Nr.:   6         [ 11 01 34 01 3D 4E E7 ]
  50.790786 1  703             Rx   d 8 27 7F EA 64 5C 18 BF 7F  Length = 230000 BitCount = 119 ID = 1795  // 1  OTP(12) Atom 703->70B : CF Seq.Nr.:   7         [ 7F EA 64 5C 18 BF 7F ]
  50.791014 1  703             Rx   d 8 28 EA 65 5C 29 D0 94 EA  Length = 222000 BitCount = 115 ID = 1795  // 1  OTP(12) Atom 703->70B : CF Seq.Nr.:   8         [ EA 65 5C 29 D0 94 EA ]
  50.791250 1  703             Rx   d 8 29 05 0F 08 BF 90 EA 02  Length = 230000 BitCount = 119 ID = 1795  // 1  OTP(12) Atom 703->70B : CF Seq.Nr.:   9         [ 05 0F 08 BF 90 EA 02 ]
  50.791488 1  703             Rx   d 8 2A 0F 05 D0 54 EA 00 0C  Length = 232000 BitCount = 120 ID = 1795  // 1  OTP(12) Atom 703->70B : CF Seq.Nr.:   A         [ 0F 05 D0 54 EA 00 0C ]
  50.791722 1  703             Rx   d 8 2B 04 BF 19 46 10 46 30  Length = 228242 BitCount = 118 ID = 1795  // 1  OTP(12) Atom 703->70B : CF Seq.Nr.:   B         [ 04 BF 19 46 10 46 30 ]
  50.791952 1  703             Rx   d 8 2C BD 91 EA 03 0F 1E BF  Length = 224242 BitCount = 116 ID = 1795  // 1  OTP(12) Atom 703->70B : CF Seq.Nr.:   C         [ BD 91 EA 03 0F 1E BF ]
  50.792193 1  703             Rx   d 8 2D 00 21 00 20 30 BD 5F  Length = 234242 BitCount = 121 ID = 1795  // 1  OTP(12) Atom 703->70B : CF Seq.Nr.:   D         [ 00 21 00 20 30 BD 5F ]
  50.792425 1  703             Rx   d 8 2E EA 54 5C 05 D1 40 00  Length = 226242 BitCount = 117 ID = 1795  // 1  OTP(12) Atom 703->70B : CF Seq.Nr.:   E         [ EA 54 5C 05 D1 40 00 ]
  50.792663 1  703             Rx   d 8 2F 49 41 28 BF 41 F0 00  Length = 232242 BitCount = 120 ID = 1795  // 1  OTP(12) Atom 703->70B : CF Seq.Nr.:   F         [ 49 41 28 BF 41 F0 00 ]
  50.792897 1  703             Rx   d 8 20 41 30 BD 14 F5 80 04  Length = 228242 BitCount = 118 ID = 1795  // 1  OTP(12) Atom 703->70B : CF Seq.Nr.:   0         [ 41 30 BD 14 F5 80 04 ]
  50.793136 1  703             Rx   d 8 21 3C BF 01 F5 80 11 30  Length = 232242 BitCount = 120 ID = 1795  // 1  OTP(12) Atom 703->70B : CF Seq.Nr.:   1         [ 3C BF 01 F5 80 11 30 ]
  50.793374 1  703             Rx   d 8 22 BD 01 F0 00 45 45 F0  Length = 232242 BitCount = 120 ID = 1795  // 1  OTP(12) Atom 703->70B : CF Seq.Nr.:   2         [ BD 01 F0 00 45 45 F0 ]
  50.793614 1  703             Rx   d 8 23 FE 41 41 F4 70 01 4F  Length = 234242 BitCount = 121 ID = 1795  // 1  OTP(12) Atom 703->70B : CF Seq.Nr.:   3         [ FE 41 41 F4 70 01 4F ]
  50.793854 1  703             Rx   d 8 24 F0 00 00 30 BD 7F EA  Length = 234242 BitCount = 121 ID = 1795  // 1  OTP(12) Atom 703->70B : CF Seq.Nr.:   4         [ F0 00 00 30 BD 7F EA ]
  50.794087 1  703             Rx   d 8 25 64 5C 1A BF 19 46 10  Length = 226242 BitCount = 117 ID = 1795  // 1  OTP(12) Atom 703->70B : CF Seq.Nr.:   5         [ 64 5C 1A BF 19 46 10 ]
  50.794321 1  703             Rx   d 8 26 46 7F EA 65 5C 1C BF  Length = 228000 BitCount = 118 ID = 1795  // 1  OTP(12) Atom 703->70B : CF Seq.Nr.:   6         [ 46 7F EA 65 5C 1C BF ]
  50.794551 1  703             Rx   d 8 27 0B 46 02 46 50 EA 01  Length = 224000 BitCount = 116 ID = 1795  // 1  OTP(12) Atom 703->70B : CF Seq.Nr.:   7         [ 0B 46 02 46 50 EA 01 ]
  50.794787 1  703             Rx   d 8 28 34 06 BF 52 EA 03 35  Length = 230000 BitCount = 119 ID = 1795  // 1  OTP(12) Atom 703->70B : CF Seq.Nr.:   8         [ 34 06 BF 52 EA 03 35 ]
  50.795023 1  703             Rx   d 8 29 91 EA 03 0F 41 F4 00  Length = 230000 BitCount = 119 ID = 1795  // 1  OTP(12) Atom 703->70B : CF Seq.Nr.:   9         [ 91 EA 03 0F 41 F4 00 ]
  50.795253 1  703             Rx   d 8 2A 21 30 BD 00 BF 90 F0  Length = 224000 BitCount = 116 ID = 1795  // 1  OTP(12) Atom 703->70B : CF Seq.Nr.:   A         [ 21 30 BD 00 BF 90 F0 ]
  50.795493 1  703             Rx   d 8 2B 00 0F 04 BF 00 21 70  Length = 234000 BitCount = 121 ID = 1795  // 1  OTP(12) Atom 703->70B : CF Seq.Nr.:   B         [ 00 0F 04 BF 00 21 70 ]
  50.795725 1  703             Rx   d 8 2C 47 30 B5 4F F4 80 64  Length = 226242 BitCount = 117 ID = 1795  // 1  OTP(12) Atom 703->70B : CF Seq.Nr.:   C         [ 47 30 B5 4F F4 80 64 ]
  50.795961 1  703             Rx   d 8 2D 04 F1 32 04 4F F0 00  Length = 230242 BitCount = 119 ID = 1795  // 1  OTP(12) Atom 703->70B : CF Seq.Nr.:   D         [ 04 F1 32 04 4F F0 00 ]
  50.796199 1  703             Rx   d 8 2E 05 4F F0 00 01 50 E7  Length = 232242 BitCount = 120 ID = 1795  // 1  OTP(12) Atom 703->70B : CF Seq.Nr.:   E         [ 05 4F F0 00 01 50 E7 ]
  50.796438 1  703             Rx   d 8 2F 00 BF 90 F0 00 0F 04  Length = 232242 BitCount = 120 ID = 1795  // 1  OTP(12) Atom 703->70B : CF Seq.Nr.:   F         [ 00 BF 90 F0 00 0F 04 ]
  50.796676 1  703             Rx   d 8 20 BF 00 21 70 47 30 B5  Length = 232242 BitCount = 120 ID = 1795  // 1  OTP(12) Atom 703->70B : CF Seq.Nr.:   0         [ BF 00 21 70 47 30 B5 ]
  50.797186 1  703             Rx   d 8 21 4F F4 80 64 04 F1 32  Length = 226242 BitCount = 117 ID = 1795  // 1  OTP(12) Atom 703->70B : CF Seq.Nr.:   1         [ 4F F4 80 64 04 F1 32 ]
  50.797422 1  703             Rx   d 8 22 04 10 F0 00 45 48 BF  Length = 230242 BitCount = 119 ID = 1795  // 1  OTP(12) Atom 703->70B : CF Seq.Nr.:   2         [ 04 10 F0 00 45 48 BF ]
  50.797663 1  703             Rx   d 8 23 40 42 4F F0 00 01 3E  Length = 234242 BitCount = 121 ID = 1795  // 1  OTP(12) Atom 703->70B : CF Seq.Nr.:   3         [ 40 42 4F F0 00 01 3E ]
  50.797901 1  703             Rx   d 8 24 E7 00 BF 42 00 4F EA  Length = 232242 BitCount = 120 ID = 1795  // 1  OTP(12) Atom 703->70B : CF Seq.Nr.:   4         [ E7 00 BF 42 00 4F EA ]
  50.798139 1  703             Rx   d 8 25 E2 01 4F EA 31 01 4F  Length = 232000 BitCount = 120 ID = 1795  // 1  OTP(12) Atom 703->70B : CF Seq.Nr.:   5         [ E2 01 4F EA 31 01 4F ]
  50.798375 1  703             Rx   d 8 26 EA 02 70 1F BF 12 F0  Length = 230000 BitCount = 119 ID = 1795  // 1  OTP(12) Atom 703->70B : CF Seq.Nr.:   6         [ EA 02 70 1F BF 12 F0 ]
  50.798613 1  703             Rx   d 8 27 7F 43 93 F0 7F 4F 81  Length = 232000 BitCount = 120 ID = 1795  // 1  OTP(12) Atom 703->70B : CF Seq.Nr.:   7         [ 7F 43 93 F0 7F 4F 81 ]
  50.798845 1  703             Rx   d 8 28 F0 60 51 70 47 92 F0  Length = 226000 BitCount = 117 ID = 1795  // 1  OTP(12) Atom 703->70B : CF Seq.Nr.:   8         [ F0 60 51 70 47 92 F0 ]
  50.799085 1  703             Rx   d 8 29 00 0F 14 BF 93 F0 7F  Length = 234000 BitCount = 121 ID = 1795  // 1  OTP(12) Atom 703->70B : CF Seq.Nr.:   9         [ 00 0F 14 BF 93 F0 7F ]
  50.799315 1  703             Rx   d 8 2A 4F 70 47 30 B5 4F F4  Length = 224000 BitCount = 116 ID = 1795  // 1  OTP(12) Atom 703->70B : CF Seq.Nr.:   A         [ 4F 70 47 30 B5 4F F4 ]
  50.799551 1  703             Rx   d 8 2B 60 74 01 F0 00 45 21  Length = 230242 BitCount = 119 ID = 1795  // 1  OTP(12) Atom 703->70B : CF Seq.Nr.:   B         [ 60 74 01 F0 00 45 21 ]
  50.799791 1  703             Rx   d 8 2C F0 00 41 20 E7 00 BF  Length = 234242 BitCount = 121 ID = 1795  // 1  OTP(12) Atom 703->70B : CF Seq.Nr.:   C         [ F0 00 41 20 E7 00 BF ]
  50.800028 1  703             Rx   d 8 2D 50 EA 01 02 08 BF 70  Length = 230242 BitCount = 119 ID = 1795  // 1  OTP(12) Atom 703->70B : CF Seq.Nr.:   D         [ 50 EA 01 02 08 BF 70 ]
  50.800264 1  703             Rx   d 8 2E 47 30 B5 4F F0 00 05  Length = 230242 BitCount = 119 ID = 1795  // 1  OTP(12) Atom 703->70B : CF Seq.Nr.:   E         [ 47 30 B5 4F F0 00 05 ]
  50.800498 1  703             Rx   d 8 2F 0A E0 50 EA 01 02 08  Length = 228242 BitCount = 118 ID = 1795  // 1  OTP(12) Atom 703->70B : CF Seq.Nr.:   F         [ 0A E0 50 EA 01 02 08 ]
  50.800734 1  703             Rx   d 8 20 BF 70 47 30 B5 11 F0  Length = 230242 BitCount = 119 ID = 1795  // 1  OTP(12) Atom 703->70B : CF Seq.Nr.:   0         [ BF 70 47 30 B5 11 F0 ]
  50.800969 1  703             Rx   d 8 21 00 45 02 D5 40 42 61  Length = 228242 BitCount = 118 ID = 1795  // 1  OTP(12) Atom 703->70B : CF Seq.Nr.:   1         [ 00 45 02 D5 40 42 61 ]
  50.801203 1  703             Rx   d 8 22 EB 41 01 4F F4 80 64  Length = 228242 BitCount = 118 ID = 1795  // 1  OTP(12) Atom 703->70B : CF Seq.Nr.:   2         [ EB 41 01 4F F4 80 64 ]
  50.801439 1  703             Rx   d 8 23 04 F1 32 04 5F EA 91  Length = 230242 BitCount = 119 ID = 1795  // 1  OTP(12) Atom 703->70B : CF Seq.Nr.:   3         [ 04 F1 32 04 5F EA 91 ]
  50.801671 1  703             Rx   d 8 24 5C 3F F4 DC AE 4F F0  Length = 226242 BitCount = 117 ID = 1795  // 1  OTP(12) Atom 703->70B : CF Seq.Nr.:   4         [ 5C 3F F4 DC AE 4F F0 ]
  50.801912 1  703             Rx   d 8 25 03 02 5F EA DC 0C 18  Length = 234242 BitCount = 121 ID = 1795  // 1  OTP(12) Atom 703->70B : CF Seq.Nr.:   5         [ 03 02 5F EA DC 0C 18 ]
  50.802150 1  703             Rx   d 8 26 BF 03 32 5F EA DC 0C  Length = 232000 BitCount = 120 ID = 1795  // 1  OTP(12) Atom 703->70B : CF Seq.Nr.:   6         [ BF 03 32 5F EA DC 0C ]
  50.802386 1  703             Rx   d 8 27 18 BF 03 32 02 EB DC  Length = 230000 BitCount = 119 ID = 1795  // 1  OTP(12) Atom 703->70B : CF Seq.Nr.:   7         [ 18 BF 03 32 02 EB DC ]
  50.802622 1  703             Rx   d 8 28 02 C2 F1 20 03 00 FA  Length = 230000 BitCount = 119 ID = 1795  // 1  OTP(12) Atom 703->70B : CF Seq.Nr.:   8         [ 02 C2 F1 20 03 00 FA ]
  50.802864 1  703             Rx   d 8 29 03 FC 20 FA 02 F0 01  Length = 236000 BitCount = 122 ID = 1795  // 1  OTP(12) Atom 703->70B : CF Seq.Nr.:   9         [ 03 FC 20 FA 02 F0 01 ]
  50.803102 1  703             Rx   d 8 2A FA 03 FE 40 EA 0E 00  Length = 232000 BitCount = 120 ID = 1795  // 1  OTP(12) Atom 703->70B : CF Seq.Nr.:   A         [ FA 03 FE 40 EA 0E 00 ]
  50.803334 1  703             Rx   d 8 2B 21 FA 02 F1 14 44 C1  Length = 226000 BitCount = 117 ID = 1795  // 1  OTP(12) Atom 703->70B : CF Seq.Nr.:   B         [ 21 FA 02 F1 14 44 C1 ]
  50.803566 1  703             Rx   d 8 2C E6 00 BF 70 B5 4F F0  Length = 226242 BitCount = 117 ID = 1795  // 1  OTP(12) Atom 703->70B : CF Seq.Nr.:   C         [ E6 00 BF 70 B5 4F F0 ]
  50.803798 1  703             Rx   d 8 2D FF 0C 4C F4 E0 6C 1C  Length = 226242 BitCount = 117 ID = 1795  // 1  OTP(12) Atom 703->70B : CF Seq.Nr.:   D         [ FF 0C 4C F4 E0 6C 1C ]
  50.804028 1  703             Rx   d 8 2E EA 11 54 1D BF 1C EA  Length = 224242 BitCount = 116 ID = 1795  // 1  OTP(12) Atom 703->70B : CF Seq.Nr.:   E         [ EA 11 54 1D BF 1C EA ]
  50.804261 1  703             Rx   d 8 2F 13 55 94 EA 0C 0F 95  Length = 226242 BitCount = 117 ID = 1795  // 1  OTP(12) Atom 703->70B : CF Seq.Nr.:   F         [ 13 55 94 EA 0C 0F 95 ]
  50.804497 1  703             Rx   d 8 20 EA 0C 0F 00 F0 DE F8  Length = 230242 BitCount = 119 ID = 1795  // 1  OTP(12) Atom 703->70B : CF Seq.Nr.:   0         [ EA 0C 0F 00 F0 DE F8 ]
  50.804729 1  703             Rx   d 8 21 2C 44 81 EA 03 06 21  Length = 226242 BitCount = 117 ID = 1795  // 1  OTP(12) Atom 703->70B : CF Seq.Nr.:   1         [ 2C 44 81 EA 03 06 21 ]
  50.804959 1  703             Rx   d 8 22 EA 4C 51 23 EA 4C 53  Length = 224242 BitCount = 116 ID = 1795  // 1  OTP(12) Atom 703->70B : CF Seq.Nr.:   2         [ EA 4C 51 23 EA 4C 53 ]
  50.805192 1  703             Rx   d 8 23 50 EA 01 35 18 BF 52  Length = 226242 BitCount = 117 ID = 1795  // 1  OTP(12) Atom 703->70B : CF Seq.Nr.:   3         [ 50 EA 01 35 18 BF 52 ]
  50.805430 1  703             Rx   d 8 24 EA 03 35 41 F4 80 11  Length = 232242 BitCount = 120 ID = 1795  // 1  OTP(12) Atom 703->70B : CF Seq.Nr.:   4         [ EA 03 35 41 F4 80 11 ]
  50.805666 1  703             Rx   d 8 25 43 F4 80 13 38 D0 A0  Length = 230242 BitCount = 119 ID = 1795  // 1  OTP(12) Atom 703->70B : CF Seq.Nr.:   5         [ 43 F4 80 13 38 D0 A0 ]
  50.805904 1  703             Rx   d 8 26 FB 02 CE 4F F0 00 05  Length = 232242 BitCount = 120 ID = 1795  // 1  OTP(12) Atom 703->70B : CF Seq.Nr.:   6         [ FB 02 CE 4F F0 00 05 ]
  50.806142 1  703             Rx   d 8 27 E1 FB 02 E5 06 F0 00  Length = 232000 BitCount = 120 ID = 1795  // 1  OTP(12) Atom 703->70B : CF Seq.Nr.:   7         [ E1 FB 02 E5 06 F0 00 ]
  50.806378 1  703             Rx   d 8 28 42 E0 FB 03 E5 4F F0  Length = 230000 BitCount = 119 ID = 1795  // 1  OTP(12) Atom 703->70B : CF Seq.Nr.:   8         [ 42 E0 FB 03 E5 4F F0 ]
  50.806614 1  703             Rx   d 8 29 00 06 E1 FB 03 56 9C  Length = 230000 BitCount = 119 ID = 1795  // 1  OTP(12) Atom 703->70B : CF Seq.Nr.:   9         [ 00 06 E1 FB 03 56 9C ]
  50.806848 1  703             Rx   d 8 2A F0 00 0F 18 BF 4E F0  Length = 228000 BitCount = 118 ID = 1795  // 1  OTP(12) Atom 703->70B : CF Seq.Nr.:   A         [ F0 00 0F 18 BF 4E F0 ]
  50.807080 1  703             Rx   d 8 2B 01 0E A4 F1 FF 04 B6  Length = 226000 BitCount = 117 ID = 1795  // 1  OTP(12) Atom 703->70B : CF Seq.Nr.:   B         [ 01 0E A4 F1 FF 04 B6 ]
  50.807312 1  703             Rx   d 8 2C F5 00 7F 64 F5 40 74  Length = 226000 BitCount = 117 ID = 1795  // 1  OTP(12) Atom 703->70B : CF Seq.Nr.:   C         [ F5 00 7F 64 F5 40 74 ]
  50.807545 1  703             Rx   d 8 2D 04 D2 5F EA 4E 0E 6D  Length = 226242 BitCount = 117 ID = 1795  // 1  OTP(12) Atom 703->70B : CF Seq.Nr.:   D         [ 04 D2 5F EA 4E 0E 6D ]
  50.807777 1  703             Rx   d 8 2E 41 46 EB 06 06 42 EA  Length = 226242 BitCount = 117 ID = 1795  // 1  OTP(12) Atom 703->70B : CF Seq.Nr.:   E         [ 41 46 EB 06 06 42 EA ]
  50.808009 1  703             Rx   d 8 2F C6 21 41 EA 55 51 4F  Length = 226242 BitCount = 117 ID = 1795  // 1  OTP(12) Atom 703->70B : CF Seq.Nr.:   F         [ C6 21 41 EA 55 51 4F ]
  50.808245 1  703             Rx   d 8 20 EA C5 20 40 EA 5E 50  Length = 230242 BitCount = 119 ID = 1795  // 1  OTP(12) Atom 703->70B : CF Seq.Nr.:   0         [ EA C5 20 40 EA 5E 50 ]
  50.808476 1  703             Rx   d 8 21 4F EA CE 2E B4 F1 FD  Length = 224242 BitCount = 116 ID = 1795  // 1  OTP(12) Atom 703->70B : CF Seq.Nr.:   1         [ 4F EA CE 2E B4 F1 FD ]
  50.808708 1  703             Rx   d 8 22 0C 88 BF BC F5 E0 6F  Length = 226242 BitCount = 117 ID = 1795  // 1  OTP(12) Atom 703->70B : CF Seq.Nr.:   2         [ 0C 88 BF BC F5 E0 6F ]
  50.808938 1  703             Rx   d 8 23 1E D8 BE F1 00 4F 08  Length = 224242 BitCount = 116 ID = 1795  // 1  OTP(12) Atom 703->70B : CF Seq.Nr.:   3         [ 1E D8 BE F1 00 4F 08 ]
  50.809170 1  703             Rx   d 8 24 BF 5F EA 50 0E 50 F1  Length = 226242 BitCount = 117 ID = 1795  // 1  OTP(12) Atom 703->70B : CF Seq.Nr.:   4         [ BF 5F EA 50 0E 50 F1 ]
  50.809409 1  703             Rx   d 8 25 00 00 41 EB 04 51 70  Length = 232242 BitCount = 120 ID = 1795  // 1  OTP(12) Atom 703->70B : CF Seq.Nr.:   5         [ 00 00 41 EB 04 51 70 ]
  50.809641 1  703             Rx   d 8 26 BD 06 F0 00 46 46 EA  Length = 226242 BitCount = 117 ID = 1795  // 1  OTP(12) Atom 703->70B : CF Seq.Nr.:   6         [ BD 06 F0 00 46 46 EA ]
  50.809879 1  703             Rx   d 8 27 01 01 40 EA 02 00 81  Length = 232242 BitCount = 120 ID = 1795  // 1  OTP(12) Atom 703->70B : CF Seq.Nr.:   7         [ 01 01 40 EA 02 00 81 ]
  50.810111 1  703             Rx   d 8 28 EA 03 01 B4 EB 5C 04  Length = 226000 BitCount = 117 ID = 1795  // 1  OTP(12) Atom 703->70B : CF Seq.Nr.:   8         [ EA 03 01 B4 EB 5C 04 ]
  50.810343 1  703             Rx   d 8 29 C2 BF D4 EB 0C 05 41  Length = 226000 BitCount = 117 ID = 1795  // 1  OTP(12) Atom 703->70B : CF Seq.Nr.:   9         [ C2 BF D4 EB 0C 05 41 ]
  50.810575 1  703             Rx   d 8 2A EA 04 51 70 BD 41 F4  Length = 226000 BitCount = 117 ID = 1795  // 1  OTP(12) Atom 703->70B : CF Seq.Nr.:   A         [ EA 04 51 70 BD 41 F4 ]
  50.810815 1  703             Rx   d 8 2B 80 11 4F F0 00 0E 01  Length = 234000 BitCount = 121 ID = 1795  // 1  OTP(12) Atom 703->70B : CF Seq.Nr.:   B         [ 80 11 4F F0 00 0E 01 ]
  50.811051 1  703             Rx   d 8 2C 3C 00 F3 AB 80 14 F1  Length = 230000 BitCount = 119 ID = 1795  // 1  OTP(12) Atom 703->70B : CF Seq.Nr.:   C         [ 3C 00 F3 AB 80 14 F1 ]
  50.811291 1  703             Rx   d 8 2D 36 0F DE BF 00 20 01  Length = 234000 BitCount = 121 ID = 1795  // 1  OTP(12) Atom 703->70B : CF Seq.Nr.:   D         [ 36 0F DE BF 00 20 01 ]
  50.811523 1  703             Rx   d 8 2E F0 00 41 70 BD C4 F1  Length = 226242 BitCount = 117 ID = 1795  // 1  OTP(12) Atom 703->70B : CF Seq.Nr.:   E         [ F0 00 41 70 BD C4 F1 ]
  50.811758 1  703             Rx   d 8 2F 00 04 20 3C 35 DA 0C  Length = 228242 BitCount = 118 ID = 1795  // 1  OTP(12) Atom 703->70B : CF Seq.Nr.:   F         [ 00 04 20 3C 35 DA 0C ]
  50.811992 1  703             Rx   d 8 20 34 1B DC 04 F1 14 04  Length = 228242 BitCount = 118 ID = 1795  // 1  OTP(12) Atom 703->70B : CF Seq.Nr.:   0         [ 34 1B DC 04 F1 14 04 ]
  50.812398 1  703             Rx   d 8 21 C4 F1 20 05 00 FA 05  Length = 232242 BitCount = 120 ID = 1795  // 1  OTP(12) Atom 703->70B : CF Seq.Nr.:   1         [ C4 F1 20 05 00 FA 05 ]
  50.812636 1  703             Rx   d 8 22 F3 20 FA 04 F0 01 FA  Length = 232242 BitCount = 120 ID = 1795  // 1  OTP(12) Atom 703->70B : CF Seq.Nr.:   2         [ F3 20 FA 04 F0 01 FA ]
  50.812877 1  703             Rx   d 8 23 05 F2 40 EA 02 00 01  Length = 234242 BitCount = 121 ID = 1795  // 1  OTP(12) Atom 703->70B : CF Seq.Nr.:   3         [ 05 F2 40 EA 02 00 01 ]
  50.813117 1  703             Rx   d 8 24 F0 00 42 21 F0 00 41  Length = 234242 BitCount = 121 ID = 1795  // 1  OTP(12) Atom 703->70B : CF Seq.Nr.:   4         [ F0 00 42 21 F0 00 41 ]
  50.813349 1  703             Rx   d 8 25 10 EB D3 70 21 FA 04  Length = 226242 BitCount = 117 ID = 1795  // 1  OTP(12) Atom 703->70B : CF Seq.Nr.:   5         [ 10 EB D3 70 21 FA 04 ]
  50.813579 1  703             Rx   d 8 26 F6 42 EB 06 01 5E EA  Length = 224242 BitCount = 116 ID = 1795  // 1  OTP(12) Atom 703->70B : CF Seq.Nr.:   6         [ F6 42 EB 06 01 5E EA ]
  50.813814 1  703             Rx   d 8 27 43 0E 08 BF 20 EA D3  Length = 228242 BitCount = 118 ID = 1795  // 1  OTP(12) Atom 703->70B : CF Seq.Nr.:   7         [ 43 0E 08 BF 20 EA D3 ]
  50.814044 1  703             Rx   d 8 28 70 70 BD C4 F1 0C 04  Length = 224000 BitCount = 116 ID = 1795  // 1  OTP(12) Atom 703->70B : CF Seq.Nr.:   8         [ 70 70 BD C4 F1 0C 04 ]
  50.814280 1  703             Rx   d 8 29 C4 F1 20 05 00 FA 04  Length = 230000 BitCount = 119 ID = 1795  // 1  OTP(12) Atom 703->70B : CF Seq.Nr.:   9         [ C4 F1 20 05 00 FA 04 ]
  50.814522 1  703             Rx   d 8 2A F3 20 FA 05 F0 01 FA  Length = 236000 BitCount = 122 ID = 1795  // 1  OTP(12) Atom 703->70B : CF Seq.Nr.:   A         [ F3 20 FA 05 F0 01 FA ]
  50.814762 1  703             Rx   d 8 2B 04 F2 40 EA 02 00 01  Length = 234000 BitCount = 121 ID = 1795  // 1  OTP(12) Atom 703->70B : CF Seq.Nr.:   B         [ 04 F2 40 EA 02 00 01 ]
  50.814994 1  703             Rx   d 8 2C F0 00 41 10 EB D3 70  Length = 226000 BitCount = 117 ID = 1795  // 1  OTP(12) Atom 703->70B : CF Seq.Nr.:   C         [ F0 00 41 10 EB D3 70 ]
  50.815230 1  703             Rx   d 8 2D 41 F1 00 01 5E EA 43  Length = 230000 BitCount = 119 ID = 1795  // 1  OTP(12) Atom 703->70B : CF Seq.Nr.:   D         [ 41 F1 00 01 5E EA 43 ]
  50.815466 1  703             Rx   d 8 2E 0E 08 BF 20 EA D3 70  Length = 230242 BitCount = 119 ID = 1795  // 1  OTP(12) Atom 703->70B : CF Seq.Nr.:   E         [ 0E 08 BF 20 EA D3 70 ]
  50.815698 1  703             Rx   d 8 2F 70 BD C4 F1 20 05 00  Length = 226242 BitCount = 117 ID = 1795  // 1  OTP(12) Atom 703->70B : CF Seq.Nr.:   F         [ 70 BD C4 F1 20 05 00 ]
  50.815936 1  703             Rx   d 8 20 FA 05 F2 4E EA 02 0E  Length = 232242 BitCount = 120 ID = 1795  // 1  OTP(12) Atom 703->70B : CF Seq.Nr.:   0         [ FA 05 F2 4E EA 02 0E ]
  50.816175 1  703             Rx   d 8 21 20 FA 04 F3 01 FA 05  Length = 232242 BitCount = 120 ID = 1795  // 1  OTP(12) Atom 703->70B : CF Seq.Nr.:   1         [ 20 FA 04 F3 01 FA 05 ]
  50.816409 1  703             Rx   d 8 22 F2 43 EA 02 03 21 FA  Length = 228242 BitCount = 118 ID = 1795  // 1  OTP(12) Atom 703->70B : CF Seq.Nr.:   2         [ F2 43 EA 02 03 21 FA ]
  50.816651 1  703             Rx   d 8 23 04 F0 01 F0 00 41 21  Length = 236242 BitCount = 122 ID = 1795  // 1  OTP(12) Atom 703->70B : CF Seq.Nr.:   3         [ 04 F0 01 F0 00 41 21 ]
  50.816887 1  703             Rx   d 8 24 FA 04 F2 20 EA 02 00  Length = 230242 BitCount = 119 ID = 1795  // 1  OTP(12) Atom 703->70B : CF Seq.Nr.:   4         [ FA 04 F2 20 EA 02 00 ]
  50.817118 1  703             Rx   d 8 25 00 EB D3 70 5E EA 43  Length = 224242 BitCount = 116 ID = 1795  // 1  OTP(12) Atom 703->70B : CF Seq.Nr.:   5         [ 00 EB D3 70 5E EA 43 ]
  50.817354 1  703             Rx   d 8 26 0E 08 BF 20 EA D3 70  Length = 230242 BitCount = 119 ID = 1795  // 1  OTP(12) Atom 703->70B : CF Seq.Nr.:   6         [ 0E 08 BF 20 EA D3 70 ]
  50.817586 1  703             Rx   d 8 27 70 BD 94 F0 00 0F 0F  Length = 226242 BitCount = 117 ID = 1795  // 1  OTP(12) Atom 703->70B : CF Seq.Nr.:   7         [ 70 BD 94 F0 00 0F 0F ]
  50.817828 1  703             Rx   d 8 28 D1 01 F0 00 46 40 00  Length = 236000 BitCount = 122 ID = 1795  // 1  OTP(12) Atom 703->70B : CF Seq.Nr.:   8         [ D1 01 F0 00 46 40 00 ]
  50.818068 1  703             Rx   d 8 29 41 EB 01 01 11 F4 80  Length = 234000 BitCount = 121 ID = 1795  // 1  OTP(12) Atom 703->70B : CF Seq.Nr.:   9         [ 41 EB 01 01 11 F4 80 ]
  50.818306 1  703             Rx   d 8 2A 1F 08 BF 01 3C F7 D0  Length = 232000 BitCount = 120 ID = 1795  // 1  OTP(12) Atom 703->70B : CF Seq.Nr.:   A         [ 1F 08 BF 01 3C F7 D0 ]
  50.818548 1  703             Rx   d 8 2B 41 EA 06 01 95 F0 00  Length = 236000 BitCount = 122 ID = 1795  // 1  OTP(12) Atom 703->70B : CF Seq.Nr.:   B         [ 41 EA 06 01 95 F0 00 ]
  50.818784 1  703             Rx   d 8 2C 0F 18 BF 70 47 03 F0  Length = 230000 BitCount = 119 ID = 1795  // 1  OTP(12) Atom 703->70B : CF Seq.Nr.:   C         [ 0F 18 BF 70 47 03 F0 ]
  50.819022 1  703             Rx   d 8 2D 00 46 52 00 43 EB 03  Length = 232000 BitCount = 120 ID = 1795  // 1  OTP(12) Atom 703->70B : CF Seq.Nr.:   D         [ 00 46 52 00 43 EB 03 ]
  50.819260 1  703             Rx   d 8 2E 03 13 F4 80 1F 08 BF  Length = 232242 BitCount = 120 ID = 1795  // 1  OTP(12) Atom 703->70B : CF Seq.Nr.:   E         [ 03 13 F4 80 1F 08 BF ]
  50.819501 1  703             Rx   d 8 2F 01 3D F7 D0 43 EA 06  Length = 234242 BitCount = 121 ID = 1795  // 1  OTP(12) Atom 703->70B : CF Seq.Nr.:   F         [ 01 3D F7 D0 43 EA 06 ]
  50.819739 1  703             Rx   d 8 20 03 70 47 94 EA 0C 0F  Length = 232242 BitCount = 120 ID = 1795  // 1  OTP(12) Atom 703->70B : CF Seq.Nr.:   0         [ 03 70 47 94 EA 0C 0F ]
  50.819971 1  703             Rx   d 8 21 0C EA 13 55 18 BF 95  Length = 226242 BitCount = 117 ID = 1795  // 1  OTP(12) Atom 703->70B : CF Seq.Nr.:   1         [ 0C EA 13 55 18 BF 95 ]
  50.820205 1  703             Rx   d 8 22 EA 0C 0F 0C D0 50 EA  Length = 228242 BitCount = 118 ID = 1795  // 1  OTP(12) Atom 703->70B : CF Seq.Nr.:   2         [ EA 0C 0F 0C D0 50 EA ]
  50.820438 1  703             Rx   d 8 23 41 06 18 BF 52 EA 43  Length = 226242 BitCount = 117 ID = 1795  // 1  OTP(12) Atom 703->70B : CF Seq.Nr.:   3         [ 41 06 18 BF 52 EA 43 ]
  50.820672 1  703             Rx   d 8 24 06 D1 D1 81 EA 03 01  Length = 228242 BitCount = 118 ID = 1795  // 1  OTP(12) Atom 703->70B : CF Seq.Nr.:   4         [ 06 D1 D1 81 EA 03 01 ]
  50.820914 1  703             Rx   d 8 25 01 F0 00 41 4F F0 00  Length = 236242 BitCount = 122 ID = 1795  // 1  OTP(12) Atom 703->70B : CF Seq.Nr.:   5         [ 01 F0 00 41 4F F0 00 ]
  50.821148 1  703             Rx   d 8 26 00 70 BD 50 EA 41 06  Length = 228242 BitCount = 118 ID = 1795  // 1  OTP(12) Atom 703->70B : CF Seq.Nr.:   6         [ 00 70 BD 50 EA 41 06 ]
  50.821381 1  703             Rx   d 8 27 06 BF 10 46 19 46 52  Length = 226242 BitCount = 117 ID = 1795  // 1  OTP(12) Atom 703->70B : CF Seq.Nr.:   7         [ 06 BF 10 46 19 46 52 ]
  50.821609 1  703             Rx   d 8 28 EA 43 06 19 D0 94 EA  Length = 222242 BitCount = 115 ID = 1795  // 1  OTP(12) Atom 703->70B : CF Seq.Nr.:   8         [ EA 43 06 19 D0 94 EA ]
  50.821843 1  703             Rx   d 8 29 0C 0F 02 D1 50 EA 01  Length = 228000 BitCount = 118 ID = 1795  // 1  OTP(12) Atom 703->70B : CF Seq.Nr.:   9         [ 0C 0F 02 D1 50 EA 01 ]
  50.822075 1  703             Rx   d 8 2A 36 13 D1 95 EA 0C 0F  Length = 226000 BitCount = 117 ID = 1795  // 1  OTP(12) Atom 703->70B : CF Seq.Nr.:   A         [ 36 13 D1 95 EA 0C 0F ]
  50.822305 1  703             Rx   d 8 2B 05 D1 52 EA 03 36 1C  Length = 224000 BitCount = 116 ID = 1795  // 1  OTP(12) Atom 703->70B : CF Seq.Nr.:   B         [ 05 D1 52 EA 03 36 1C ]
  50.822541 1  703             Rx   d 8 2C BF 10 46 19 46 0A D1  Length = 230000 BitCount = 119 ID = 1795  // 1  OTP(12) Atom 703->70B : CF Seq.Nr.:   C         [ BF 10 46 19 46 0A D1 ]
  50.822781 1  703             Rx   d 8 2D 81 EA 03 01 01 F0 00  Length = 234000 BitCount = 121 ID = 1795  // 1  OTP(12) Atom 703->70B : CF Seq.Nr.:   D         [ 81 EA 03 01 01 F0 00 ]
  50.823021 1  703             Rx   d 8 2E 41 41 F0 FE 41 41 F4  Length = 234000 BitCount = 121 ID = 1795  // 1  OTP(12) Atom 703->70B : CF Seq.Nr.:   E         [ 41 41 F0 FE 41 41 F4 ]
  50.823261 1  703             Rx   d 8 2F 70 01 4F F0 00 00 70  Length = 234242 BitCount = 121 ID = 1795  // 1  OTP(12) Atom 703->70B : CF Seq.Nr.:   F         [ 70 01 4F F0 00 00 70 ]
  50.823501 1  703             Rx   d 8 20 BD 41 F0 FE 41 41 F4  Length = 234242 BitCount = 121 ID = 1795  // 1  OTP(12) Atom 703->70B : CF Seq.Nr.:   0         [ BD 41 F0 FE 41 41 F4 ]
  50.823736 1  703             Rx   d 8 21 78 01 70 BD 70 B5 4F  Length = 228242 BitCount = 118 ID = 1795  // 1  OTP(12) Atom 703->70B : CF Seq.Nr.:   1         [ 78 01 70 BD 70 B5 4F ]
  50.823966 1  703             Rx   d 8 22 F0 FF 0C 4C F4 E0 6C  Length = 224242 BitCount = 116 ID = 1795  // 1  OTP(12) Atom 703->70B : CF Seq.Nr.:   2         [ F0 FF 0C 4C F4 E0 6C ]
  50.824198 1  703             Rx   d 8 23 1C EA 11 54 1D BF 1C  Length = 226242 BitCount = 117 ID = 1795  // 1  OTP(12) Atom 703->70B : CF Seq.Nr.:   3         [ 1C EA 11 54 1D BF 1C ]
  50.824430 1  703             Rx   d 8 24 EA 13 55 94 EA 0C 0F  Length = 226242 BitCount = 117 ID = 1795  // 1  OTP(12) Atom 703->70B : CF Seq.Nr.:   4         [ EA 13 55 94 EA 0C 0F ]
  50.824665 1  703             Rx   d 8 25 95 EA 0C 0F 00 F0 A7  Length = 228242 BitCount = 118 ID = 1795  // 1  OTP(12) Atom 703->70B : CF Seq.Nr.:   5         [ 95 EA 0C 0F 00 F0 A7 ]
  50.824901 1  703             Rx   d 8 26 F8 A4 EB 05 04 81 EA  Length = 230242 BitCount = 119 ID = 1795  // 1  OTP(12) Atom 703->70B : CF Seq.Nr.:   6         [ F8 A4 EB 05 04 81 EA ]
  50.825133 1  703             Rx   d 8 27 03 0E 52 EA 03 35 4F  Length = 226242 BitCount = 117 ID = 1795  // 1  OTP(12) Atom 703->70B : CF Seq.Nr.:   7         [ 03 0E 52 EA 03 35 4F ]
  50.825369 1  703             Rx   d 8 28 EA 01 31 00 F0 88 80  Length = 230242 BitCount = 119 ID = 1795  // 1  OTP(12) Atom 703->70B : CF Seq.Nr.:   8         [ EA 01 31 00 F0 88 80 ]
  50.825604 1  703             Rx   d 8 29 4F EA 03 33 4F F0 80  Length = 228242 BitCount = 118 ID = 1795  // 1  OTP(12) Atom 703->70B : CF Seq.Nr.:   9         [ 4F EA 03 33 4F F0 80 ]
  50.825834 1  703             Rx   d 8 2A 55 45 EA 13 13 43 EA  Length = 224000 BitCount = 116 ID = 1795  // 1  OTP(12) Atom 703->70B : CF Seq.Nr.:   A         [ 55 45 EA 13 13 43 EA ]
  50.826066 1  703             Rx   d 8 2B 12 63 4F EA 02 22 45  Length = 226000 BitCount = 117 ID = 1795  // 1  OTP(12) Atom 703->70B : CF Seq.Nr.:   B         [ 12 63 4F EA 02 22 45 ]
  50.826296 1  703             Rx   d 8 2C EA 11 15 45 EA 10 65  Length = 224000 BitCount = 116 ID = 1795  // 1  OTP(12) Atom 703->70B : CF Seq.Nr.:   C         [ EA 11 15 45 EA 10 65 ]
  50.826536 1  703             Rx   d 8 2D 4F EA 00 26 0E F0 00  Length = 234000 BitCount = 121 ID = 1795  // 1  OTP(12) Atom 703->70B : CF Seq.Nr.:   D         [ 4F EA 00 26 0E F0 00 ]
  50.826768 1  703             Rx   d 8 2E 41 9D 42 08 BF 96 42  Length = 226000 BitCount = 117 ID = 1795  // 1  OTP(12) Atom 703->70B : CF Seq.Nr.:   E         [ 41 9D 42 08 BF 96 42 ]
  50.827002 1  703             Rx   d 8 2F 44 F1 FD 04 04 F5 40  Length = 228000 BitCount = 118 ID = 1795  // 1  OTP(12) Atom 703->70B : CF Seq.Nr.:   F         [ 44 F1 FD 04 04 F5 40 ]
  50.827234 1  703             Rx   d 8 20 74 02 D2 5B 08 4F EA  Length = 226242 BitCount = 117 ID = 1795  // 1  OTP(12) Atom 703->70B : CF Seq.Nr.:   0         [ 74 02 D2 5B 08 4F EA ]
  50.827872 1  703             Rx   d 8 21 32 02 B6 1A 65 EB 03  Length = 228242 BitCount = 118 ID = 1795  // 1  OTP(12) Atom 703->70B : CF Seq.Nr.:   1         [ 32 02 B6 1A 65 EB 03 ]
  50.828104 1  703             Rx   d 8 22 05 5B 08 4F EA 32 02  Length = 226242 BitCount = 117 ID = 1795  // 1  OTP(12) Atom 703->70B : CF Seq.Nr.:   2         [ 05 5B 08 4F EA 32 02 ]
  50.828347 1  703             Rx   d 8 23 4F F4 80 10 4F F4 00  Length = 236242 BitCount = 122 ID = 1795  // 1  OTP(12) Atom 703->70B : CF Seq.Nr.:   3         [ 4F F4 80 10 4F F4 00 ]
  50.828577 1  703             Rx   d 8 24 2C B6 EB 02 0E 75 EB  Length = 224242 BitCount = 116 ID = 1795  // 1  OTP(12) Atom 703->70B : CF Seq.Nr.:   4         [ 2C B6 EB 02 0E 75 EB ]
  50.828807 1  703             Rx   d 8 25 03 0E 22 BF B6 1A 75  Length = 224242 BitCount = 116 ID = 1795  // 1  OTP(12) Atom 703->70B : CF Seq.Nr.:   5         [ 03 0E 22 BF B6 1A 75 ]
  50.829041 1  703             Rx   d 8 26 46 40 EA 0C 00 5B 08  Length = 228242 BitCount = 118 ID = 1795  // 1  OTP(12) Atom 703->70B : CF Seq.Nr.:   6         [ 46 40 EA 0C 00 5B 08 ]
  50.829278 1  703             Rx   d 8 27 4F EA 32 02 B6 EB 02  Length = 230242 BitCount = 119 ID = 1795  // 1  OTP(12) Atom 703->70B : CF Seq.Nr.:   7         [ 4F EA 32 02 B6 EB 02 ]
  50.829512 1  703             Rx   d 8 28 0E 75 EB 03 0E 22 BF  Length = 228242 BitCount = 118 ID = 1795  // 1  OTP(12) Atom 703->70B : CF Seq.Nr.:   8         [ 0E 75 EB 03 0E 22 BF ]
  50.829740 1  703             Rx   d 8 29 B6 1A 75 46 40 EA 5C  Length = 222000 BitCount = 115 ID = 1795  // 1  OTP(12) Atom 703->70B : CF Seq.Nr.:   9         [ B6 1A 75 46 40 EA 5C ]
  50.829974 1  703             Rx   d 8 2A 00 5B 08 4F EA 32 02  Length = 228000 BitCount = 118 ID = 1795  // 1  OTP(12) Atom 703->70B : CF Seq.Nr.:   A         [ 00 5B 08 4F EA 32 02 ]
  50.830206 1  703             Rx   d 8 2B B6 EB 02 0E 75 EB 03  Length = 226000 BitCount = 117 ID = 1795  // 1  OTP(12) Atom 703->70B : CF Seq.Nr.:   B         [ B6 EB 02 0E 75 EB 03 ]
  50.830436 1  703             Rx   d 8 2C 0E 22 BF B6 1A 75 46  Length = 224000 BitCount = 116 ID = 1795  // 1  OTP(12) Atom 703->70B : CF Seq.Nr.:   C         [ 0E 22 BF B6 1A 75 46 ]
  50.830672 1  703             Rx   d 8 2D 40 EA 9C 00 5B 08 4F  Length = 230000 BitCount = 119 ID = 1795  // 1  OTP(12) Atom 703->70B : CF Seq.Nr.:   D         [ 40 EA 9C 00 5B 08 4F ]
  50.830904 1  703             Rx   d 8 2E EA 32 02 B6 EB 02 0E  Length = 226000 BitCount = 117 ID = 1795  // 1  OTP(12) Atom 703->70B : CF Seq.Nr.:   E         [ EA 32 02 B6 EB 02 0E ]
  50.831134 1  703             Rx   d 8 2F 75 EB 03 0E 22 BF B6  Length = 224242 BitCount = 116 ID = 1795  // 1  OTP(12) Atom 703->70B : CF Seq.Nr.:   F         [ 75 EB 03 0E 22 BF B6 ]
  50.831368 1  703             Rx   d 8 20 1A 75 46 40 EA DC 00  Length = 228242 BitCount = 118 ID = 1795  // 1  OTP(12) Atom 703->70B : CF Seq.Nr.:   0         [ 1A 75 46 40 EA DC 00 ]
  50.831603 1  703             Rx   d 8 21 55 EA 06 0E 18 D0 4F  Length = 228242 BitCount = 118 ID = 1795  // 1  OTP(12) Atom 703->70B : CF Seq.Nr.:   1         [ 55 EA 06 0E 18 D0 4F ]
  50.831831 1  703             Rx   d 8 22 EA 05 15 45 EA 16 75  Length = 222242 BitCount = 115 ID = 1795  // 1  OTP(12) Atom 703->70B : CF Seq.Nr.:   2         [ EA 05 15 45 EA 16 75 ]
  50.832065 1  703             Rx   d 8 23 4F EA 06 16 4F EA C3  Length = 228242 BitCount = 118 ID = 1795  // 1  OTP(12) Atom 703->70B : CF Seq.Nr.:   3         [ 4F EA 06 16 4F EA C3 ]
  50.832299 1  703             Rx   d 8 24 03 43 EA 52 73 4F EA  Length = 228242 BitCount = 118 ID = 1795  // 1  OTP(12) Atom 703->70B : CF Seq.Nr.:   4         [ 03 43 EA 52 73 4F EA ]
  50.832536 1  703             Rx   d 8 25 C2 02 5F EA 1C 1C C0  Length = 230242 BitCount = 119 ID = 1795  // 1  OTP(12) Atom 703->70B : CF Seq.Nr.:   5         [ C2 02 5F EA 1C 1C C0 ]
  50.832772 1  703             Rx   d 8 26 D1 11 F4 80 1F 0B D1  Length = 230242 BitCount = 119 ID = 1795  // 1  OTP(12) Atom 703->70B : CF Seq.Nr.:   6         [ D1 11 F4 80 1F 0B D1 ]
  50.833016 1  703             Rx   d 8 27 41 EA 00 01 4F F0 00  Length = 238242 BitCount = 123 ID = 1795  // 1  OTP(12) Atom 703->70B : CF Seq.Nr.:   7         [ 41 EA 00 01 4F F0 00 ]
  50.833254 1  703             Rx   d 8 28 00 4F F0 00 4C B6 E7  Length = 232242 BitCount = 120 ID = 1795  // 1  OTP(12) Atom 703->70B : CF Seq.Nr.:   8         [ 00 4F F0 00 4C B6 E7 ]
  50.833495 1  703             Rx   d 8 29 11 F4 80 1F 04 BF 01  Length = 234242 BitCount = 121 ID = 1795  // 1  OTP(12) Atom 703->70B : CF Seq.Nr.:   9         [ 11 F4 80 1F 04 BF 01 ]
  50.833729 1  703             Rx   d 8 2A 43 00 20 B4 F1 FD 0C  Length = 228000 BitCount = 118 ID = 1795  // 1  OTP(12) Atom 703->70B : CF Seq.Nr.:   A         [ 43 00 20 B4 F1 FD 0C ]
  50.833963 1  703             Rx   d 8 2B 88 BF BC F5 E0 6F 3F  Length = 228000 BitCount = 118 ID = 1795  // 1  OTP(12) Atom 703->70B : CF Seq.Nr.:   B         [ 88 BF BC F5 E0 6F 3F ]
  50.834193 1  703             Rx   d 8 2C F6 AF AE B5 EB 03 0C  Length = 224000 BitCount = 116 ID = 1795  // 1  OTP(12) Atom 703->70B : CF Seq.Nr.:   C         [ F6 AF AE B5 EB 03 0C ]
  50.834429 1  703             Rx   d 8 2D 04 BF B6 EB 02 0C 5F  Length = 230000 BitCount = 119 ID = 1795  // 1  OTP(12) Atom 703->70B : CF Seq.Nr.:   D         [ 04 BF B6 EB 02 0C 5F ]
  50.834663 1  703             Rx   d 8 2E EA 50 0C 50 F1 00 00  Length = 228000 BitCount = 118 ID = 1795  // 1  OTP(12) Atom 703->70B : CF Seq.Nr.:   E         [ EA 50 0C 50 F1 00 00 ]
  50.834895 1  703             Rx   d 8 2F 41 EB 04 51 70 BD 0E  Length = 226000 BitCount = 117 ID = 1795  // 1  OTP(12) Atom 703->70B : CF Seq.Nr.:   F         [ 41 EB 04 51 70 BD 0E ]
  50.835129 1  703             Rx   d 8 20 F0 00 4E 4E EA 11 31  Length = 228242 BitCount = 118 ID = 1795  // 1  OTP(12) Atom 703->70B : CF Seq.Nr.:   0         [ F0 00 4E 4E EA 11 31 ]
  50.835359 1  703             Rx   d 8 21 14 EB 5C 04 C2 BF D4  Length = 224242 BitCount = 116 ID = 1795  // 1  OTP(12) Atom 703->70B : CF Seq.Nr.:   1         [ 14 EB 5C 04 C2 BF D4 ]
  50.835595 1  703             Rx   d 8 22 EB 0C 05 41 EA 04 51  Length = 230242 BitCount = 119 ID = 1795  // 1  OTP(12) Atom 703->70B : CF Seq.Nr.:   2         [ EB 0C 05 41 EA 04 51 ]
  50.835832 1  703             Rx   d 8 23 70 BD 41 F4 80 11 4F  Length = 230242 BitCount = 119 ID = 1795  // 1  OTP(12) Atom 703->70B : CF Seq.Nr.:   3         [ 70 BD 41 F4 80 11 4F ]
  50.836066 1  703             Rx   d 8 24 F0 00 0E 01 3C 90 E6  Length = 228242 BitCount = 118 ID = 1795  // 1  OTP(12) Atom 703->70B : CF Seq.Nr.:   4         [ F0 00 0E 01 3C 90 E6 ]
  50.836300 1  703             Rx   d 8 25 45 EA 06 0E 8D E6 0C  Length = 228242 BitCount = 118 ID = 1795  // 1  OTP(12) Atom 703->70B : CF Seq.Nr.:   5         [ 45 EA 06 0E 8D E6 0C ]
  50.836534 1  703             Rx   d 8 26 EA 13 55 94 EA 0C 0F  Length = 228242 BitCount = 118 ID = 1795  // 1  OTP(12) Atom 703->70B : CF Seq.Nr.:   6         [ EA 13 55 94 EA 0C 0F ]
  50.836769 1  703             Rx   d 8 27 08 BF 95 EA 0C 0F 3F  Length = 228242 BitCount = 118 ID = 1795  // 1  OTP(12) Atom 703->70B : CF Seq.Nr.:   7         [ 08 BF 95 EA 0C 0F 3F ]
  50.837003 1  703             Rx   d 8 28 F4 3B AF 94 EA 0C 0F  Length = 228242 BitCount = 118 ID = 1795  // 1  OTP(12) Atom 703->70B : CF Seq.Nr.:   8         [ F4 3B AF 94 EA 0C 0F ]
  50.837233 1  703             Rx   d 8 29 0A D1 50 EA 01 34 7F  Length = 224242 BitCount = 116 ID = 1795  // 1  OTP(12) Atom 703->70B : CF Seq.Nr.:   9         [ 0A D1 50 EA 01 34 7F ]
  50.837467 1  703             Rx   d 8 2A F4 34 AF 95 EA 0C 0F  Length = 228242 BitCount = 118 ID = 1795  // 1  OTP(12) Atom 703->70B : CF Seq.Nr.:   A         [ F4 34 AF 95 EA 0C 0F ]
  50.837701 1  703             Rx   d 8 2B 7F F4 25 AF 10 46 19  Length = 228000 BitCount = 118 ID = 1795  // 1  OTP(12) Atom 703->70B : CF Seq.Nr.:   B         [ 7F F4 25 AF 10 46 19 ]
  50.837933 1  703             Rx   d 8 2C 46 2C E7 95 EA 0C 0F  Length = 226000 BitCount = 117 ID = 1795  // 1  OTP(12) Atom 703->70B : CF Seq.Nr.:   C         [ 46 2C E7 95 EA 0C 0F ]
  50.838165 1  703             Rx   d 8 2D 06 D1 52 EA 03 35 3F  Length = 226000 BitCount = 117 ID = 1795  // 1  OTP(12) Atom 703->70B : CF Seq.Nr.:   D         [ 06 D1 52 EA 03 35 3F ]
  50.838397 1  703             Rx   d 8 2E F4 FD AE 10 46 19 46  Length = 226000 BitCount = 117 ID = 1795  // 1  OTP(12) Atom 703->70B : CF Seq.Nr.:   E         [ F4 FD AE 10 46 19 46 ]
  50.838627 1  703             Rx   d 8 2F 22 E7 50 EA 41 06 18  Length = 224000 BitCount = 116 ID = 1795  // 1  OTP(12) Atom 703->70B : CF Seq.Nr.:   F         [ 22 E7 50 EA 41 06 18 ]
  50.838865 1  703             Rx   d 8 20 BF 52 EA 43 06 7F F4  Length = 232000 BitCount = 120 ID = 1795  // 1  OTP(12) Atom 703->70B : CF Seq.Nr.:   0         [ BF 52 EA 43 06 7F F4 ]
  50.839100 1  703             Rx   d 8 21 C5 AE 50 EA 41 04 7F  Length = 228242 BitCount = 118 ID = 1795  // 1  OTP(12) Atom 703->70B : CF Seq.Nr.:   1         [ C5 AE 50 EA 41 04 7F ]
  50.839330 1  703             Rx   d 8 22 F4 0D AF 52 EA 43 05  Length = 224242 BitCount = 116 ID = 1795  // 1  OTP(12) Atom 703->70B : CF Seq.Nr.:   2         [ F4 0D AF 52 EA 43 05 ]
  50.839560 1  703             Rx   d 8 23 7F F4 EB AE 12 E7 4F  Length = 224242 BitCount = 116 ID = 1795  // 1  OTP(12) Atom 703->70B : CF Seq.Nr.:   3         [ 7F F4 EB AE 12 E7 4F ]
  50.839796 1  703             Rx   d 8 24 F0 FF 3C 06 E0 00 BF  Length = 230242 BitCount = 119 ID = 1795  // 1  OTP(12) Atom 703->70B : CF Seq.Nr.:   4         [ F0 FF 3C 06 E0 00 BF ]
